! Created with skrf 1.9.0 (http://scikit-rf.org).
# GHz S RI R 50.0 
!freq ReS11 ImS11
0.3 -0.9751289894654961 -0.016350404829754528
0.3011484375 -0.974926957141144 -0.015518688524402247
0.302296875 -0.9730109521508539 -0.014568004599826712
0.3034453125 -0.9751318298190794 -0.012823546274147613
0.30459375 -0.9743245673108951 -0.012365126862087406
0.3057421875 -0.9758521180511804 -0.012104250047869525
0.306890625 -0.975393095059438 -0.012124979113748824
0.3080390625 -0.9781917478152734 -0.011915179162031664
0.3091875 -0.9766234197496089 -0.015194337366203903
0.3103359375 -0.9787263604627712 -0.013409743952258246
0.311484375 -0.9779155407509769 -0.013882158843746162
0.3126328125 -0.9786570434313497 -0.013810123581248362
0.31378125 -0.9792828022156137 -0.012852451030493012
0.3149296875 -0.9765340577335804 -0.013541668607863322
0.316078125 -0.9790946413515019 -0.013667989993772472
0.3172265625 -0.9764607855622772 -0.014526185112809203
0.318375 -0.9792374396998829 -0.012591759123470297
0.3195234375 -0.976828281174888 -0.014414673454271526
0.320671875 -0.9794540812995854 -0.014328270398890466
0.3218203125 -0.977937415418856 -0.015145469086843938
0.32296875 -0.9777187249683287 -0.015452723678802127
0.3241171875 -0.978100369204287 -0.01533634077467301
0.325265625 -0.9799653396450618 -0.012177505655176342
0.3264140625 -0.9812805829029321 -0.011854430343732042
0.3275625 -0.9792787626762627 -0.015040333338215264
0.3287109375 -0.9787846096651616 -0.015589203354691633
0.329859375 -0.9773356789065946 -0.01620939500400498
0.3310078125 -0.977921193791557 -0.014850179654718743
0.33215625 -0.9762393361474607 -0.013496025969700454
0.3333046875 -0.9786790453749881 -0.01750888744564799
0.334453125 -0.9793868471882821 -0.01627650336078093
0.3356015625 -0.9764395443274306 -0.016371434698446624
0.33675 -0.9771874265573104 -0.018482623187766056
0.3378984375 -0.9753208567403033 -0.01700704673445913
0.339046875 -0.9776763372208608 -0.01583112320583363
0.3401953125 -0.9768558174304152 -0.0167330206855979
0.34134375 -0.978930681962815 -0.01786679938369984
0.3424921875 -0.9754534391228338 -0.014482162713183866
0.343640625 -0.9787143281146666 -0.01614762716353424
0.3447890625 -0.9769851506909617 -0.017403286517841288
0.3459375 -0.9785920124319585 -0.02072247071560246
0.3470859375 -0.9777864294479208 -0.018506044728287985
0.348234375 -0.9792904377491432 -0.017232793006733804
0.3493828125 -0.9764830737083661 -0.01805562961330448
0.35053125 -0.9805205778108289 -0.018899193286069205
0.3516796875 -0.9785326521377727 -0.01676717636305275
0.352828125 -0.97648747243743 -0.01743703155643639
0.3539765625 -0.9792810915711253 -0.01667669084975204
0.355125 -0.9786980118451261 -0.019965983806748466
0.3562734375 -0.979906500257996 -0.019445546241271816
0.357421875 -0.9784186161158884 -0.017724953660150422
0.3585703125 -0.9797596796147007 -0.015135542904066268
0.35971875 -0.9782959255345418 -0.017476566033235885
0.3608671875 -0.9785729243352634 -0.01596900796221623
0.362015625 -0.9790080309735565 -0.016826582601639828
0.3631640625 -0.9777418742116336 -0.01687353237764111
0.3643125 -0.9793448786222839 -0.015806700450593125
0.3654609375 -0.9770402797505828 -0.015752109143626125
0.366609375 -0.979442400288886 -0.015561788753805872
0.3677578125 -0.9785584334607764 -0.015842131041194307
0.36890625 -0.979693779008888 -0.015534750700448241
0.3700546875 -0.9772973464414516 -0.016026662807040737
0.371203125 -0.9802296079347654 -0.014556441401794573
0.3723515625 -0.9773802841320556 -0.016520118580297893
0.3735 -0.9795557160196302 -0.014906427156277657
0.3746484375 -0.9774182758542853 -0.01591958665719101
0.375796875 -0.9778722979734075 -0.014933436933943167
0.3769453125 -0.9780568487702405 -0.01464062850064951
0.37809375 -0.9785237977292717 -0.01415327715617154
0.3792421875 -0.9790073243080251 -0.014062931285968194
0.380390625 -0.9781902183628519 -0.013668855735907648
0.3815390625 -0.9799545648288274 -0.012538984027967881
0.3826875 -0.9789109514302414 -0.012978339124548544
0.3838359375 -0.9812514204666981 -0.012280281953768735
0.384984375 -0.9802476501935345 -0.01393140641875934
0.3861328125 -0.9809550915607282 -0.013656965738018778
0.38728125 -0.980566301523575 -0.0138591185148631
0.3884296875 -0.980162367516259 -0.013793188993270616
0.389578125 -0.9807840181527677 -0.013922648957108763
0.3907265625 -0.9793123599942254 -0.013569696194898478
0.391875 -0.9805139318393769 -0.012672331339764142
0.3930234375 -0.9792477206078014 -0.01369874651356115
0.394171875 -0.9809119994943619 -0.013347711691807707
0.3953203125 -0.9800540546442731 -0.013608724404422401
0.39646875 -0.9814387877717592 -0.012535058170950492
0.3976171875 -0.9800064665005328 -0.013454510246917462
0.398765625 -0.980737321052635 -0.012571262516243603
0.3999140625 -0.9814694330560461 -0.012501241494163734
0.4010625 -0.9808912015811677 -0.012878460615229181
0.4022109375 -0.9820776761619984 -0.012467412544683865
0.403359375 -0.9807893253592275 -0.013262637737963545
0.4045078125 -0.9820513131841808 -0.013644064260983135
0.40565625 -0.9801810975782638 -0.01453052939963477
0.4068046875 -0.9814986560042099 -0.01355132153555133
0.407953125 -0.9799031555301236 -0.014267665832250302
0.4091015625 -0.981557099595082 -0.012943121676023149
0.41025 -0.979880861315366 -0.013941588564057937
0.4113984375 -0.9803779890271374 -0.013672225806861886
0.412546875 -0.980772789573939 -0.014059111591615714
0.4136953125 -0.9802391243238278 -0.014773771816704091
0.41484375 -0.9811196905311079 -0.013887792247081948
0.4159921875 -0.9799749323387251 -0.013885831728864276
0.417140625 -0.9807572112717873 -0.013041704424294198
0.4182890625 -0.9794021501109758 -0.014222261437557032
0.4194375 -0.9817236015214894 -0.01352582890512588
0.4205859375 -0.979960918217432 -0.013797114799358273
0.421734375 -0.9811414352787238 -0.013110201460055926
0.4228828125 -0.9805308940843065 -0.014514015892836157
0.42403125 -0.9807937732405033 -0.013482594287304889
0.4251796875 -0.9809007397344793 -0.013918693790480413
0.426328125 -0.9806814126174616 -0.013157211323395257
0.4274765625 -0.981528693009327 -0.013023496044606953
0.428625 -0.9788526441981732 -0.014184277916076543
0.4297734375 -0.9823018964032757 -0.013202183403192846
0.430921875 -0.9801024423816072 -0.013513790448157703
0.4320703125 -0.9806883068191354 -0.013216576271507796
0.43321875 -0.9804865758440274 -0.0136775103875737
0.4343671875 -0.9807816658910065 -0.013834001850860422
0.435515625 -0.981125223639397 -0.01387082322587846
0.4366640625 -0.9810556180988104 -0.012959096439630224
0.4378125 -0.9807121328730418 -0.013134514953196896
0.4389609375 -0.9809480654530623 -0.013254476453829989
0.440109375 -0.9823933397578923 -0.011909872599406401
0.4412578125 -0.980177934957326 -0.01337024495996586
0.44240625 -0.9810608039852767 -0.012770500057115386
0.4435546875 -0.9794588404644308 -0.013921942204042859
0.444703125 -0.9818895097323584 -0.013103116006210003
0.4458515625 -0.9804508959518453 -0.012878917772370546
0.447 -0.9819134024755404 -0.011783858726010343
0.4481484375 -0.9797510945451187 -0.014923893740545924
0.449296875 -0.9810521187516397 -0.012436182207394564
0.4504453125 -0.9826657180458744 -0.01298390898941465
0.45159375 -0.9814048525722381 -0.01323049143318411
0.4527421875 -0.9824528235359988 -0.013006893210919745
0.453890625 -0.9816494582536428 -0.012955402144297912
0.4550390625 -0.98266883795365 -0.013418957763163042
0.4561875 -0.9802010205240579 -0.014252796155115488
0.4573359375 -0.981988226316871 -0.01291341581656047
0.458484375 -0.9806513806758324 -0.014142919039763002
0.4596328125 -0.9817287727481306 -0.015227245126894273
0.46078125 -0.9820617118102601 -0.014525784988778878
0.4619296875 -0.9811812206284616 -0.01380212600078834
0.463078125 -0.9816855598877591 -0.013522244767955605
0.4642265625 -0.981324497070126 -0.01442802650718289
0.465375 -0.9821704670475124 -0.014311459386104008
0.4665234375 -0.9817753791229645 -0.014533386182436603
0.467671875 -0.982662740454182 -0.01327363986582758
0.4688203125 -0.9807755375216787 -0.013606149499448439
0.46996875 -0.9838454453613324 -0.013914875433803542
0.4711171875 -0.9814123256062978 -0.014053615160293631
0.472265625 -0.9815937115404615 -0.013782722961779403
0.4734140625 -0.9820008766512758 -0.014576518271356087
0.4745625 -0.9818012672962122 -0.014263847413090225
0.4757109375 -0.9818916838552809 -0.015184160300992372
0.476859375 -0.9815592062885221 -0.015292899790121023
0.4780078125 -0.984040005199621 -0.014906040988418967
0.47915625 -0.9821280093555335 -0.014985758110202169
0.4803046875 -0.9814574795303801 -0.015769130281415328
0.481453125 -0.9814800009478684 -0.015140805224743925
0.4826015625 -0.9823273276810348 -0.013893583469302972
0.48375 -0.9808687560762992 -0.014726664255651445
0.4848984375 -0.982445332870705 -0.014579605285805736
0.486046875 -0.9811869536054678 -0.015836188323035655
0.4871953125 -0.9821710506188547 -0.01528996003532529
0.48834375 -0.9812925284358949 -0.01662799161785085
0.4894921875 -0.9809100179073929 -0.016414941143365128
0.490640625 -0.9812764359146595 -0.01614866796699968
0.4917890625 -0.9800812304914361 -0.016631753133299336
0.4929375 -0.9810120277819027 -0.016268700261626787
0.4940859375 -0.9796244244017667 -0.016618616713750783
0.495234375 -0.9808105683075267 -0.01628853664625505
0.4963828125 -0.9795547081100657 -0.017020543180811813
0.49753125 -0.9812606311250724 -0.016215051368341234
0.4986796875 -0.9784282666321442 -0.017405701393474284
0.499828125 -0.9794377962379652 -0.015712427723486036
0.5009765625 -0.9786865134916378 -0.015671834361477358
0.502125 -0.9785270758376183 -0.014689835145346566
0.5032734375 -0.9790130401104874 -0.014158704567906744
0.504421875 -0.9792620924250062 -0.015080727652663564
0.5055703125 -0.980709731748679 -0.014683272789327573
0.50671875 -0.9796175992539501 -0.01474970184305506
0.5078671875 -0.9808703033622617 -0.013954969728346922
0.509015625 -0.9802065137466416 -0.014637754466715669
0.5101640625 -0.9815256151663071 -0.013288858816780935
0.5113125 -0.9811835459711091 -0.013671889265901488
0.5124609375 -0.9815659985119926 -0.013820230166287611
0.513609375 -0.9823104721236144 -0.014144143695109274
0.5147578125 -0.9817201863214993 -0.014441110727496542
0.51590625 -0.9820786678567013 -0.014576961048872322
0.5170546875 -0.9813927647809452 -0.014897632692173507
0.518203125 -0.9823354365320192 -0.014166579119118117
0.5193515625 -0.981303167197011 -0.015072975556357726
0.5205 -0.9816247476435267 -0.015093680511412078
0.5216484375 -0.9811641733447506 -0.0150157056271637
0.522796875 -0.9822069322459988 -0.013839828440977475
0.5239453125 -0.9816203321008814 -0.014475227182048633
0.52509375 -0.9823665529934882 -0.013692647795040508
0.5262421875 -0.9828105487858053 -0.013405462753282138
0.527390625 -0.9821583063466413 -0.0140241152867141
0.5285390625 -0.9822069909117326 -0.013792683374507897
0.5296875 -0.9817239104957787 -0.014102764860490613
0.5308359375 -0.9835048669520471 -0.012159574096558434
0.531984375 -0.9827034431729327 -0.013762361075077445
0.5331328125 -0.9833197893166702 -0.014046748426978894
0.53428125 -0.98266490998527 -0.014148970522770199
0.5354296875 -0.9831363066364688 -0.014758029223292002
0.536578125 -0.9841383629117644 -0.012152271583524943
0.5377265625 -0.9830265676018726 -0.013801288323610106
0.538875 -0.98430698745639 -0.013675199595902188
0.5400234375 -0.9838707575564001 -0.014651645173163252
0.541171875 -0.9847292655078934 -0.012840012117679545
0.5423203125 -0.9839943656694192 -0.012241418829156747
0.54346875 -0.9836509412037926 -0.013883354329296937
0.5446171875 -0.9849595983951812 -0.013745434369875964
0.545765625 -0.9838140822504886 -0.014266640447578749
0.5469140625 -0.9845941781603831 -0.014064866839326673
0.5480625 -0.9837296344736954 -0.014999092600064434
0.5492109375 -0.9843904028977076 -0.014259898757061407
0.550359375 -0.9837729199194233 -0.014083874575603339
0.5515078125 -0.984455891182262 -0.013728834025728165
0.55265625 -0.9834425551167464 -0.014842298387191366
0.5538046875 -0.9835886034470397 -0.014362976689406781
0.554953125 -0.9843476761862244 -0.014081654882497768
0.5561015625 -0.9838386460067474 -0.014049469951055077
0.55725 -0.9845401972065025 -0.013853176912702408
0.5583984375 -0.9840897901131842 -0.014278792163943899
0.559546875 -0.9850269937956927 -0.013647450843323056
0.5606953125 -0.9850282938676934 -0.015002968161530544
0.56184375 -0.9855390429536944 -0.014590566774923402
0.5629921875 -0.9827913691574912 -0.014103353674440988
0.564140625 -0.9842330194661211 -0.013521911287044719
0.5652890625 -0.9829488179032285 -0.014647432413938816
0.5664375 -0.9834189047664257 -0.013314813208075676
0.5675859375 -0.9834794892851321 -0.01380945431272379
0.568734375 -0.9829266514526334 -0.013520055700292022
0.5698828125 -0.9835279311006622 -0.014207122374951309
0.57103125 -0.9830368538553286 -0.013561063058302888
0.5721796875 -0.9839393052272505 -0.013578599130014843
0.573328125 -0.9827676631956002 -0.013965621376289428
0.5744765625 -0.984253139812086 -0.013010594060853989
0.575625 -0.9828272874948946 -0.013428240894835658
0.5767734375 -0.9846400711159382 -0.012271808289690767
0.577921875 -0.9843749140153082 -0.013015085392222098
0.5790703125 -0.9833870519442123 -0.011867144749472688
0.58021875 -0.9840869923351336 -0.012240570797583141
0.5813671875 -0.9833949739209948 -0.012379667498744723
0.582515625 -0.9839907872243462 -0.01127159630874585
0.5836640625 -0.9836249732908408 -0.011442988176108075
0.5848125 -0.9844001096091398 -0.011275002578571527
0.5859609375 -0.9836962754387346 -0.010768847673377296
0.587109375 -0.9844412926267727 -0.010255158545867983
0.5882578125 -0.9839553274489499 -0.011650890974588803
0.58940625 -0.9847408423940665 -0.010634271463785955
0.5905546875 -0.9845098792197954 -0.011146024405874866
0.591703125 -0.9841617544425483 -0.010666853403525883
0.5928515625 -0.9848604161258234 -0.010961132584475244
0.594 -0.984127708502931 -0.011087707787869425
0.5951484375 -0.9850819977941037 -0.010595148508787872
0.596296875 -0.9841962689595213 -0.01078957929113078
0.5974453125 -0.9851177494633283 -0.010823250816554497
0.59859375 -0.9849217624744141 -0.0113694761765335
0.5997421875 -0.9859054699020358 -0.010346953784889729
0.600890625 -0.984822825695144 -0.010975237879033095
0.6020390625 -0.9859193194120961 -0.010634588812131834
0.6031875 -0.9856481232373298 -0.01044144133828942
0.6043359375 -0.985853126363358 -0.010372801764364503
0.605484375 -0.9869568139825272 -0.010465002001626783
0.6066328125 -0.9863699944989253 -0.010616650141093698
0.60778125 -0.9875277710921597 -0.010932853083659766
0.6089296875 -0.9855176200783116 -0.011778612688504275
0.610078125 -0.9867421558450495 -0.011841146913884382
0.6112265625 -0.9855455241841018 -0.012016768062393823
0.612375 -0.9866270773057939 -0.011443253939293074
0.6135234375 -0.9856910613240752 -0.01257899184870448
0.614671875 -0.9867539486332664 -0.011483138377667956
0.6158203125 -0.9854758812529618 -0.012151788372799732
0.61696875 -0.9853773248311106 -0.012321577883307733
0.6181171875 -0.9857080367534525 -0.012850752729524406
0.619265625 -0.9846401642934076 -0.012712603159941993
0.6204140625 -0.985586395513985 -0.012425123289293405
0.6215625 -0.9850434966593842 -0.012471339356553257
0.6227109375 -0.9862275774695961 -0.012050497739303834
0.623859375 -0.9852069888350304 -0.012438616820405146
0.6250078125 -0.9870158799731128 -0.012182128220399546
0.62615625 -0.9854609727857891 -0.0128805384962834
0.6273046875 -0.986229949434782 -0.013373471487443556
0.628453125 -0.9864478853832737 -0.01341022587565699
0.6296015625 -0.9859429615228952 -0.012906757500785293
0.63075 -0.9867715328786597 -0.012794986462131175
0.6318984375 -0.9858607291784848 -0.012877031268946681
0.633046875 -0.9869456880528048 -0.012914473926946446
0.6341953125 -0.9852287109259534 -0.012686449523190035
0.63534375 -0.9851342554199635 -0.012831002279922787
0.6364921875 -0.9851659333467035 -0.014286086543440657
0.637640625 -0.9859746930276916 -0.013116026817736215
0.6387890625 -0.9832992933988124 -0.014110154908354322
0.6399375 -0.9861682191401201 -0.013128206254668595
0.6410859375 -0.9861605361006778 -0.014031825276853538
0.642234375 -0.9855493769798391 -0.012408042928771568
0.6433828125 -0.9849920321641412 -0.013309091034757192
0.64453125 -0.9858323331278076 -0.014389020702441357
0.6456796875 -0.9857616080743418 -0.012098264509415368
0.646828125 -0.9852213621176933 -0.012916509691988265
0.6479765625 -0.9863777372044502 -0.013383276434082492
0.649125 -0.9845221366648726 -0.012863379367356598
0.6502734375 -0.9851286577560341 -0.010091509324763659
0.651421875 -0.9849706377143782 -0.013409870688122577
0.6525703125 -0.986076073121063 -0.012091351779610016
0.65371875 -0.9850712474102264 -0.012820816940714491
0.6548671875 -0.9851456754030314 -0.012804743831616422
0.656015625 -0.9856955704925346 -0.012314061426226763
0.6571640625 -0.9853401903185484 -0.012956620788634243
0.6583125 -0.9854820842733096 -0.012724239482781952
0.6594609375 -0.984957558590558 -0.012916197523378858
0.660609375 -0.9848137366474042 -0.012402120510108527
0.6617578125 -0.9852242975395187 -0.012071991978981844
0.66290625 -0.9862902994142926 -0.012153689917290572
0.6640546875 -0.9861641220394666 -0.012517563639126483
0.665203125 -0.9879082992942136 -0.011605287377538798
0.6663515625 -0.9861213269657726 -0.012125907520786447
0.6675 -0.9865639750484145 -0.011408943921452586
0.6686484375 -0.9859071090402127 -0.011394809077263549
0.669796875 -0.9867530324662014 -0.011429112283433587
0.6709453125 -0.988176862448753 -0.011831904395120565
0.67209375 -0.986900973459423 -0.011532215101766094
0.6732421875 -0.9877938684341512 -0.011467482345223764
0.674390625 -0.9873330768074322 -0.011714321902417266
0.6755390625 -0.9889282913632289 -0.011470563251115614
0.6766875 -0.9869842429382222 -0.012155389504770735
0.6778359375 -0.987631539379183 -0.012461195654013067
0.678984375 -0.9874512838858085 -0.011638181129234586
0.6801328125 -0.9878534304650542 -0.01139160391851609
0.68128125 -0.9875842952989072 -0.01170774719384593
0.6824296875 -0.9877059579734627 -0.011269080513052088
0.683578125 -0.9882226566584241 -0.012122161409583956
0.6847265625 -0.9875619052329825 -0.011995151329757425
0.685875 -0.9887433236042725 -0.01159620552348739
0.6870234375 -0.9878061562902585 -0.012081806594221464
0.688171875 -0.988190369977507 -0.011634582620953057
0.6893203125 -0.9881310069064674 -0.012710971042119434
0.69046875 -0.988877861642522 -0.01298199812571249
0.6916171875 -0.9882886093406512 -0.013331971114240698
0.692765625 -0.9882732331328055 -0.01308339946483919
0.6939140625 -0.9876360594053046 -0.013499500284926608
0.6950625 -0.9873761854497822 -0.01335754315446358
0.6962109375 -0.9878804903917069 -0.013702038497484248
0.697359375 -0.986992046211201 -0.013564030586501352
0.6985078125 -0.9874487882256375 -0.013002431769034123
0.69965625 -0.9869669446832301 -0.012994458360405081
0.7008046875 -0.9878307195069155 -0.012893701745669867
0.701953125 -0.9871986396114492 -0.013053676705165385
0.7031015625 -0.988323961187381 -0.012740153659326653
0.70425 -0.9876321883185332 -0.013395985620604206
0.7053984375 -0.987455366149697 -0.013248506710595381
0.706546875 -0.987796083832779 -0.013821035782619673
0.7076953125 -0.9873843383151721 -0.013678675557406955
0.70884375 -0.9879781568267693 -0.013331169610650645
0.7099921875 -0.9873514918125197 -0.013905041759840309
0.711140625 -0.9864030454529612 -0.013525437718235417
0.7122890625 -0.9875056075378305 -0.013322503353356163
0.7134375 -0.9871651130850227 -0.013070135782605435
0.7145859375 -0.9878280649711949 -0.013298945806877238
0.715734375 -0.987070388471877 -0.013007609891036498
0.7168828125 -0.9882740249150896 -0.012746259912416374
0.71803125 -0.9878103381212759 -0.012867644140803408
0.7191796875 -0.9879479815545286 -0.012717164890082844
0.720328125 -0.9877447027358626 -0.01281689401665878
0.7214765625 -0.9876432567680395 -0.01186292384085863
0.722625 -0.9873830880181389 -0.012451966466626468
0.7237734375 -0.9875814747930582 -0.012143888598715236
