! Created with skrf 1.9.0 (http://scikit-rf.org).
# GHz S RI R 50.0 
!freq ReS11 ImS11
0.3 -0.9638835663414174 0.049005686067131016
0.3011484375 -0.963001206930979 0.05028436366821043
0.302296875 -0.9626523728140344 0.052108457448981904
0.3034453125 -0.9631880299277873 0.05296552039992908
0.30459375 -0.9642209349780988 0.05408237484598721
0.3057421875 -0.9646668919811386 0.05428084470216993
0.306890625 -0.9650039557366605 0.0543555446972383
0.3080390625 -0.9664580430508961 0.05358803722856248
0.3091875 -0.9660601597182819 0.052088669960553224
0.3103359375 -0.9663600390489808 0.05253559531997093
0.311484375 -0.9675916908428198 0.05384240402647819
0.3126328125 -0.9659241232397975 0.05310783376945205
0.31378125 -0.9662557145307105 0.05328923162535394
0.3149296875 -0.9662717720329385 0.05377497066261845
0.316078125 -0.9682428780678085 0.05501725865783444
0.3172265625 -0.9674896661661635 0.054570859666624005
0.318375 -0.9653390578208237 0.05403254243065268
0.3195234375 -0.9675830326178501 0.05534044414737574
0.320671875 -0.9682760074041616 0.05514587219346464
0.3218203125 -0.9663676302951079 0.052962016250472706
0.32296875 -0.9658543082713609 0.05330916213603083
0.3241171875 -0.9673977171623331 0.05551045641198986
0.325265625 -0.9670706557180173 0.05487652172920431
0.3264140625 -0.9688345168865301 0.05696332171615613
0.3275625 -0.9682027548783991 0.05292213882395996
0.3287109375 -0.9670123988744462 0.05434801917820627
0.329859375 -0.968327457344029 0.05579483314900696
0.3310078125 -0.9678420161838478 0.05568884156812276
0.33215625 -0.966312260028181 0.054757529643824826
0.3333046875 -0.9680460527601813 0.0532189031010083
0.334453125 -0.9676454180956597 0.05333111690076828
0.3356015625 -0.9666817576731843 0.05770036048924673
0.33675 -0.9675135715509176 0.05422853237122868
0.3378984375 -0.9681048296643269 0.05494541204538117
0.339046875 -0.9682248610426873 0.057106594607801375
0.3401953125 -0.9691968531193982 0.05916385364042187
0.34134375 -0.967934679653845 0.055804991580819585
0.3424921875 -0.9661360216603132 0.05723498420314166
0.343640625 -0.9662927389040818 0.05664977963599105
0.3447890625 -0.9664255973266741 0.05656892467884406
0.3459375 -0.9693487129528527 0.05445710428278416
0.3470859375 -0.9669656611389931 0.0599594777214596
0.348234375 -0.9688840823518428 0.05508713963328837
0.3493828125 -0.9664934096747253 0.05618606295797163
0.35053125 -0.9704787815945193 0.05500790739030581
0.3516796875 -0.9679020131770153 0.05772807963607446
0.352828125 -0.9649984468139469 0.05764372466022183
0.3539765625 -0.9658766674144689 0.05998350944085046
0.355125 -0.9678419106353596 0.056274389263668234
0.3562734375 -0.9676605550514439 0.05733639157191911
0.357421875 -0.9681905588023897 0.0584998557495669
0.3585703125 -0.9675749418740028 0.059162517104561274
0.35971875 -0.9669842160321189 0.06001958557068615
0.3608671875 -0.9666585291473384 0.05977509906153783
0.362015625 -0.9671479955012969 0.060284358814412686
0.3631640625 -0.9670353623157899 0.06020046997649914
0.3643125 -0.9673108635678622 0.06150226314977181
0.3654609375 -0.9667888565982675 0.06105194906084732
0.366609375 -0.9680047978009504 0.06097430393638159
0.3677578125 -0.9679607507866105 0.06204562217170967
0.36890625 -0.9675193259464934 0.06231046535091317
0.3700546875 -0.9669109566850806 0.06218140132737232
0.371203125 -0.9680226265612639 0.0631823091069903
0.3723515625 -0.9673588834402123 0.06220471677699696
0.3735 -0.9683905403456408 0.06377445604952536
0.3746484375 -0.9669383292155366 0.06353172725381612
0.375796875 -0.9676186240867481 0.0643769379257722
0.3769453125 -0.9669148804807092 0.06471130789710539
0.37809375 -0.9679832502307884 0.06534480777484669
0.3792421875 -0.9673151832613598 0.0652590717591659
0.380390625 -0.9677438021298307 0.06647162945350366
0.3815390625 -0.9681495576567616 0.06691956208486205
0.3826875 -0.9683686469890886 0.06721961142224192
0.3838359375 -0.9697530798560222 0.06764665120109187
0.384984375 -0.9694606946007169 0.06680176973828056
0.3861328125 -0.9697341569608273 0.06687892290559239
0.38728125 -0.9695476834250978 0.06756723664133465
0.3884296875 -0.969241189397998 0.06711361163382903
0.389578125 -0.9694182675714197 0.06736780356488978
0.3907265625 -0.9690054129795673 0.06812645115946903
0.391875 -0.9690200174132959 0.06902643306372933
0.3930234375 -0.9690865691880802 0.06860506116512727
0.394171875 -0.9693261676752147 0.06831916553207426
0.3953203125 -0.9693118146108908 0.06926349489965133
0.39646875 -0.9696452168813635 0.06952408309347152
0.3976171875 -0.9696089256678022 0.0698943505573358
0.398765625 -0.9695212109667475 0.07090875586341189
0.3999140625 -0.9697252766741721 0.07053857554943717
0.4010625 -0.9701232727961377 0.07052423933966875
0.4022109375 -0.9704419832606038 0.07097165241228043
0.403359375 -0.970351024254176 0.07065083586327464
0.4045078125 -0.9703802496890124 0.07072075215587159
0.40565625 -0.9695129234383655 0.06999698060785683
0.4068046875 -0.9700114346848889 0.07097392609231402
0.407953125 -0.9695166547242601 0.07075676068349246
0.4091015625 -0.9696567420117617 0.07184113066318992
0.41025 -0.9690569813854659 0.07155364993415111
0.4113984375 -0.9695280466148091 0.0713268273479495
0.412546875 -0.9693578916259422 0.07186785594665666
0.4136953125 -0.969261942891751 0.07155154668551081
0.41484375 -0.9693169552850043 0.07227815814418008
0.4159921875 -0.9694004878816322 0.07275393758367121
0.417140625 -0.9691250372968389 0.07314186593985043
0.4182890625 -0.9692410648374437 0.07271390867394628
0.4194375 -0.9700135701482031 0.07310155232004711
0.4205859375 -0.9697188984973956 0.07391971324786345
0.421734375 -0.9693636287569706 0.07379282864202463
0.4228828125 -0.9700470762342954 0.07344632444619548
0.42403125 -0.9700854915042063 0.0742660327154325
0.4251796875 -0.9700861433124803 0.07438496175987025
0.426328125 -0.9703358995068123 0.07518355445144514
0.4274765625 -0.9701332536008276 0.07525007725126343
0.428625 -0.9687403592525731 0.07437261757361019
0.4297734375 -0.9707337802603007 0.07515373641594048
0.430921875 -0.9698035822461755 0.07577483898367787
0.4320703125 -0.9689075871307927 0.07536466233315775
0.43321875 -0.9698853471881326 0.07607834235989919
0.4343671875 -0.9688348733992191 0.07520655625741268
0.435515625 -0.9698707877722579 0.07619122947746149
0.4366640625 -0.9700723552698283 0.07705228718039886
0.4378125 -0.9688211035595103 0.07712404601218653
0.4389609375 -0.969685077416299 0.07679352397108657
0.440109375 -0.9706584939163003 0.07852494886507039
0.4412578125 -0.9692589763219215 0.07775573544612102
0.44240625 -0.9691370873957162 0.07796406113322268
0.4435546875 -0.9682823848906332 0.07757665531212549
0.444703125 -0.9707906158407367 0.07942454367085361
0.4458515625 -0.9693151355635077 0.07902857704714333
0.447 -0.9708880938955755 0.07953830713397725
0.4481484375 -0.9685994692505668 0.07666917652726424
0.449296875 -0.9701587036289028 0.07943546779463423
0.4504453125 -0.9696969825380378 0.07929831623768735
0.45159375 -0.9701482801314047 0.07974739515452017
0.4527421875 -0.9704204670063348 0.0795799057157
0.453890625 -0.9710510494065957 0.08025555268852991
0.4550390625 -0.9706157992849891 0.07960768489824382
0.4561875 -0.9700194698551279 0.07966353576612917
0.4573359375 -0.9700244259625697 0.08206593588314803
0.458484375 -0.9701991394501758 0.08096869538065571
0.4596328125 -0.9703834122679009 0.08115888697979701
0.46078125 -0.971047870445422 0.08047740529553704
0.4619296875 -0.9701559191096918 0.08074280457366556
0.463078125 -0.9706107862243348 0.08230124455171117
0.4642265625 -0.9703334232305026 0.08145639004396837
0.465375 -0.9705414811002658 0.08266538640088916
0.4665234375 -0.9710989139842254 0.0820993163593215
0.467671875 -0.9696335413574987 0.08156381257249468
0.4688203125 -0.970510908754196 0.08181167321062205
0.46996875 -0.9704721400303238 0.08294995952970041
0.4711171875 -0.9703642572968659 0.08234500787321869
0.472265625 -0.9708538795097421 0.08296337784734875
0.4734140625 -0.9700097395724435 0.08320485132407551
0.4745625 -0.9700302678218041 0.08306389398624281
0.4757109375 -0.9696346697258655 0.08186855489912448
0.476859375 -0.9704439025148573 0.08248441015531302
0.4780078125 -0.9708100418777303 0.08263868203041361
0.47915625 -0.9703117202506937 0.08265105945611811
0.4803046875 -0.9696210191714503 0.08298381695817542
0.481453125 -0.9695535239120906 0.08390668370399898
0.4826015625 -0.969951582989355 0.08390408104746877
0.48375 -0.9697541453166444 0.08458287399661601
0.4848984375 -0.970271766769895 0.08396368311762797
0.486046875 -0.9702520695061247 0.08435328036250245
0.4871953125 -0.9703805620829596 0.08429838566690445
0.48834375 -0.969786697886966 0.08424724618823062
0.4894921875 -0.9698424894949969 0.08433876439310566
0.490640625 -0.9693657592149922 0.08453248849124989
0.4917890625 -0.9692344243579516 0.08443376497842443
0.4929375 -0.9689394741879579 0.0845315979010474
0.4940859375 -0.9688206927596865 0.08474703257183432
0.495234375 -0.9689903173997657 0.08505000174851465
0.4963828125 -0.9685990847882439 0.08529071544090339
0.49753125 -0.9691124954738879 0.08557880084538044
0.4986796875 -0.9679719393602233 0.08551116110009799
0.499828125 -0.9684218972166974 0.08686345930135775
0.5009765625 -0.9678016634503976 0.08730458193832483
0.502125 -0.9681579906004002 0.08837706951837782
0.5032734375 -0.9671994922735538 0.08870552099778181
0.504421875 -0.9685074274331513 0.08828226305491192
0.5055703125 -0.968799946505595 0.08875401176912381
0.50671875 -0.9685630346752747 0.08916699338449292
0.5078671875 -0.9690651041503832 0.08936383098567616
0.509015625 -0.9690766632951757 0.09010377988927466
0.5101640625 -0.9691864789006239 0.0905034870616621
0.5113125 -0.9701736970439707 0.09083101632677237
0.5124609375 -0.9707793396238439 0.09089799766496734
0.513609375 -0.9706311733659109 0.0911083386875313
0.5147578125 -0.970622919549987 0.09117274354925368
0.51590625 -0.9700432755902951 0.09113323600470416
0.5170546875 -0.9703997986403261 0.09122624455458714
0.518203125 -0.9702391410187443 0.09126670159962905
0.5193515625 -0.9700609740968963 0.09161257376511456
0.5205 -0.9689223881502205 0.09206871798544078
0.5216484375 -0.9695512565598485 0.09281223532889823
0.522796875 -0.970389410449227 0.09292543679146065
0.5239453125 -0.9698353647319886 0.09301692508267839
0.52509375 -0.9714067303995005 0.0948964950198678
0.5262421875 -0.9718359915223667 0.09370780997947889
0.527390625 -0.970668147031605 0.09499510130959751
0.5285390625 -0.9708550537912308 0.09496339453395342
0.5296875 -0.9701667925552445 0.09581570133859932
0.5308359375 -0.971180366746167 0.09497818777177619
0.531984375 -0.971572397742073 0.09520554329114697
0.5331328125 -0.9703253833755455 0.09549225679749643
0.53428125 -0.9712478575765784 0.09594420514915455
0.5354296875 -0.9708202122190859 0.09598898146028256
0.536578125 -0.9713994699721735 0.09618858167694708
0.5377265625 -0.972191491199388 0.09671289854011297
0.538875 -0.9717251597255866 0.09657281493348185
0.5400234375 -0.9711907565624808 0.09901617031147739
0.541171875 -0.9721827381434456 0.09781856296760408
0.5423203125 -0.9717908367308392 0.09834228614336807
0.54346875 -0.9719763475913012 0.09758588372536539
0.5446171875 -0.97218907477915 0.09821625270865567
0.545765625 -0.9722342576044941 0.09805514917396024
0.5469140625 -0.9719171700709329 0.09795259758523941
0.5480625 -0.9717837137487852 0.09760940616251573
0.5492109375 -0.9722760563691262 0.09824457625868938
0.550359375 -0.9720201264317018 0.09917470388570107
0.5515078125 -0.972252242212811 0.09914262916912894
0.55265625 -0.9721315403176571 0.0990767250474357
0.5538046875 -0.9721029385087937 0.0990405772326527
0.554953125 -0.9720350043699628 0.10029660568507226
0.5561015625 -0.9722986054114742 0.10016992120732662
0.55725 -0.9721935616865744 0.10052060474102537
0.5583984375 -0.9724866737958229 0.10063912178273979
0.559546875 -0.972588633527104 0.1012995044091157
0.5606953125 -0.9734786158376388 0.10076460452406548
0.56184375 -0.9731119432054119 0.10073815329943851
0.5629921875 -0.9715175696154597 0.10182931982855203
0.564140625 -0.9719595965259525 0.1020219095891253
0.5652890625 -0.9720292603822343 0.10198899133213261
0.5664375 -0.9717899329138233 0.10277247648614649
0.5675859375 -0.9718314445161427 0.10284419393145446
0.568734375 -0.9712945859635581 0.10293193351280194
0.5698828125 -0.9713942969138825 0.10254145359766294
0.57103125 -0.971665172073254 0.10361172156404222
0.5721796875 -0.9718485515398482 0.10371017320916742
0.573328125 -0.9713099960744185 0.10381071449505871
0.5744765625 -0.9714257610464444 0.10450632571265991
0.575625 -0.9714137941112901 0.1051666405699031
0.5767734375 -0.9717707871115101 0.10558139159560118
0.577921875 -0.9721204587078834 0.10592911665043449
0.5790703125 -0.9713238880985668 0.10650242632680765
0.58021875 -0.9714661203010295 0.10677062278764737
0.5813671875 -0.9713717126153382 0.10711081554888356
0.582515625 -0.9714565282076251 0.10810736833653312
0.5836640625 -0.9715546563029689 0.10837946767490195
0.5848125 -0.9714292058115452 0.10815634833269261
0.5859609375 -0.9716566288477952 0.10942322932257981
0.587109375 -0.9717265524104464 0.10979170133035462
0.5882578125 -0.9718823681625306 0.10949309609511344
0.58940625 -0.9719243079738195 0.11009080079908214
0.5905546875 -0.9717865154587486 0.1100376393439346
0.591703125 -0.9716920466814363 0.11027801043383148
0.5928515625 -0.9718210665374996 0.11091044762041133
0.594 -0.9716751176197327 0.11093411266402542
0.5951484375 -0.9723105612968443 0.11134016592423332
0.596296875 -0.9718564199237756 0.11148526892752803
0.5974453125 -0.9721060471522438 0.11180927755264136
0.59859375 -0.9723368327589796 0.11150784769441016
0.5997421875 -0.972661220935856 0.11245233457969514
0.600890625 -0.9727639272930255 0.1125066296767896
0.6020390625 -0.9731005559307618 0.11271884070763835
0.6031875 -0.9727669447858249 0.11326728934872929
0.6043359375 -0.9733060610418283 0.11356681328386231
0.605484375 -0.9737255342073953 0.11371708221847021
0.6066328125 -0.9737787451129085 0.11389264163501561
0.60778125 -0.9742796306999413 0.11360653303645679
0.6089296875 -0.9733774246556465 0.11319715081506068
0.610078125 -0.9738231250557324 0.11302063576626642
0.6112265625 -0.9736260328158639 0.11318906073379581
0.612375 -0.9736275166309291 0.11388933611977786
0.6135234375 -0.9736411510685608 0.11355430014193629
0.614671875 -0.9737313312513314 0.11406501266478564
0.6158203125 -0.9730196615572626 0.1141269900222539
0.61696875 -0.9728680690594256 0.11396265406514039
0.6181171875 -0.9730038357854129 0.11395317723411075
0.619265625 -0.9727758818164214 0.114475089523918
0.6204140625 -0.9729552859144088 0.1150980943587569
0.6215625 -0.9731781333849137 0.11519116256540735
0.6227109375 -0.9735052607642953 0.11560806101928195
0.623859375 -0.973280226543513 0.11562717222407615
0.6250078125 -0.9741871400017688 0.11558371354929836
0.62615625 -0.9732392765132292 0.1155997736846952
0.6273046875 -0.9734703221578332 0.11486087332026301
0.628453125 -0.9736251230094034 0.1155850606913017
0.6296015625 -0.9733598941749242 0.11589337933250066
0.63075 -0.9738325686183104 0.11642527496314187
0.6318984375 -0.973850755173124 0.11646133851491036
0.633046875 -0.9737379616357017 0.11665786047679905
0.6341953125 -0.9724882215242168 0.11722549223745954
0.63534375 -0.9707907926325567 0.11636889283857615
0.6364921875 -0.9726444042919681 0.11630151113604525
0.637640625 -0.9734476071103293 0.11675918682584902
0.6387890625 -0.9714594258965229 0.1164051600042616
0.6399375 -0.9734204184958131 0.11735153476712518
0.6410859375 -0.9733970721508681 0.11743682656858284
0.642234375 -0.9718689915465906 0.11938704746468481
0.6433828125 -0.972652516467326 0.12038621946888117
0.64453125 -0.9726966225326772 0.11876254085252574
0.6456796875 -0.9725642341918206 0.12014831042723267
0.646828125 -0.9720720130500332 0.1194512384848771
0.6479765625 -0.973917603963798 0.12093385464190748
0.649125 -0.9717380585139342 0.12028136133709727
0.6502734375 -0.972223385261746 0.12049593229091402
0.651421875 -0.9725336661980288 0.12035803683374074
0.6525703125 -0.9721440905688544 0.12102123734645398
0.65371875 -0.9723480316309512 0.12379414683475631
0.6548671875 -0.9725571396341657 0.12039327141636369
0.656015625 -0.9715948061069895 0.12142993177200548
0.6571640625 -0.9723167902446127 0.12240505961766782
0.6583125 -0.9725797357939714 0.12279727285940079
0.6594609375 -0.9719451976250344 0.12270814996651397
0.660609375 -0.9724475584567904 0.12309191940849754
0.6617578125 -0.9733096996735117 0.12354950262898703
0.66290625 -0.9738522918306545 0.12449832792323931
0.6640546875 -0.9735974436547776 0.1245536110914181
0.665203125 -0.9738103832148594 0.12535264797587156
0.6663515625 -0.9730014225575584 0.12539433638042385
0.6675 -0.9736881114801785 0.1253290780309141
0.6686484375 -0.9730672827717073 0.12531388923748737
0.669796875 -0.9732452993645329 0.12642473081979116
0.6709453125 -0.9733209503180407 0.1261186781559439
0.67209375 -0.9737960269043606 0.12638404139415105
0.6732421875 -0.9739922549130248 0.12655842618664181
0.674390625 -0.9734107337663309 0.12649627304835193
0.6755390625 -0.9741349486551035 0.12751622156503428
0.6766875 -0.9738549957824365 0.1278893420159039
0.6778359375 -0.9747657115243316 0.12756787951268633
0.678984375 -0.9738345629220306 0.12815598597120767
0.6801328125 -0.9739166155850164 0.12781672232162472
0.68128125 -0.9741981259405887 0.12855248407468606
0.6824296875 -0.9739983699054532 0.12866213311540725
0.683578125 -0.9742872667442282 0.12846739557301337
0.6847265625 -0.9741648572326056 0.1288030574904943
0.685875 -0.9745417400701432 0.1293568736030416
0.6870234375 -0.9744503953265871 0.1292822355453587
0.688171875 -0.9746505015984094 0.12943034700311534
0.6893203125 -0.9752314117315581 0.12934900316176173
0.69046875 -0.9752371211767521 0.12919327621680718
0.6916171875 -0.9748888893302177 0.1292486645919717
0.692765625 -0.9743289587806255 0.12936736770222967
0.6939140625 -0.974316307654862 0.12938024395072267
0.6950625 -0.9737348674147708 0.12943054238226945
0.6962109375 -0.9742358033370475 0.12992517304759763
0.697359375 -0.973940705029098 0.1300164570876028
0.6985078125 -0.9740115461096428 0.13100501399370063
0.69965625 -0.9741061821217716 0.13132230429019795
0.7008046875 -0.9742377880886081 0.13124898391754986
0.701953125 -0.9737204139169667 0.13149918734800603
0.7031015625 -0.9742416847468481 0.13176816827232907
0.70425 -0.9740385236816503 0.13196835755006514
0.7053984375 -0.9736386703690152 0.1316877222919144
0.706546875 -0.9742272921258094 0.13210591634273516
0.7076953125 -0.9740605744766669 0.1321253629783926
0.70884375 -0.9742144892780981 0.13263557996038527
0.7099921875 -0.9739250457326886 0.13267766381790194
0.711140625 -0.9730357322075914 0.1325367619590767
0.7122890625 -0.973531593320062 0.1333048913188848
0.7134375 -0.9735161539938195 0.1339860761650079
0.7145859375 -0.9737496211626986 0.13432511804957034
0.715734375 -0.9737185235719836 0.1348909405943012
0.7168828125 -0.9734974597856161 0.13513243215962933
0.71803125 -0.973460001804243 0.13568422241356476
0.7191796875 -0.9733288716816353 0.13513848427145017
0.720328125 -0.973670898022621 0.1360668009512347
0.7214765625 -0.9729204524260091 0.13655071634306645
0.722625 -0.973151605234817 0.13699067482471206
0.7237734375 -0.9729577929628347 0.13694253085600944
0.724921875 -0.972843497546136 0.13714993601635317
0.7260703125 -0.9728179110865582 0.1375961035407572
0.72721875 -0.9726812114184357 0.13839059769248607
0.7283671875 -0.9731398435231886 0.1394128462762265
0.729515625 -0.9729103493668545 0.13926231279812895
0.7306640625 -0.9726320031810061 0.13905837347707484
0.7318125 -0.9725124268452692 0.1403478126945224
0.7329609375 -0.9727418274302242 0.14077908380887297
0.734109375 -0.9728424459078988 0.141461671145818
0.7352578125 -0.9728575913486528 0.14115515042364424
0.73640625 -0.9727391983401563 0.14194519678345635
0.7375546875 -0.972690942172303 0.1422964034898638
0.738703125 -0.9726041765398992 0.14281054757409473
0.7398515625 -0.9725909040220493 0.143497290159108
