! Created with skrf 1.9.0 (http://scikit-rf.org).
# GHz S RI R 50.0 
!freq ReS11 ImS11
0.3 -0.9527187708890987 0.1180198593087951
0.3011484375 -0.9518869656222579 0.11992384077205814
0.302296875 -0.9512818490797035 0.12206398273342373
0.3034453125 -0.9526656779366096 0.12315464252295988
0.30459375 -0.9529398892634825 0.12439418012869435
0.3057421875 -0.9536812667186945 0.12465682318111515
0.306890625 -0.9537092947024688 0.12492396936093753
0.3080390625 -0.9555724552924294 0.12429074722749489
0.3091875 -0.9549534861270534 0.12315763219410908
0.3103359375 -0.9549283158820568 0.12398879485148984
0.311484375 -0.9556702720122596 0.12568776111266816
0.3126328125 -0.9561960369333775 0.12533567450044472
0.31378125 -0.956425646869842 0.12601548498064075
0.3149296875 -0.9547656127738826 0.12581307281573095
0.316078125 -0.9570688998102297 0.12757894529992583
0.3172265625 -0.9564187350289548 0.12724597106036037
0.318375 -0.9553893916503509 0.12491014526191355
0.3195234375 -0.9548811388745292 0.12676795005769215
0.320671875 -0.956078849979643 0.12652519689801345
0.3218203125 -0.9547381641431293 0.12672305458986272
0.32296875 -0.9545246287902422 0.1267263612455544
0.3241171875 -0.9547887108303874 0.12631423913381673
0.325265625 -0.9564154731379534 0.12809789078901299
0.3264140625 -0.9577155787992402 0.1286238309647393
0.3275625 -0.9569887084799407 0.1278931017210338
0.3287109375 -0.9564615559725218 0.12883409704764492
0.329859375 -0.956696927870978 0.1299767677586428
0.3310078125 -0.9575484080783011 0.13035734053449916
0.33215625 -0.9555179703617016 0.13242623411528007
0.3333046875 -0.955087934747889 0.12885384934649202
0.334453125 -0.9551638887369664 0.12954628517515
0.3356015625 -0.9542954068201622 0.1317671098049833
0.33675 -0.9549261178782265 0.1302062269703525
0.3378984375 -0.9547595957558916 0.1319481383912628
0.339046875 -0.9545972629232139 0.13427045824750364
0.3401953125 -0.955278820589998 0.1337764562088121
0.34134375 -0.9550562434929581 0.1357954705502715
0.3424921875 -0.9539940229510929 0.13431477323362123
0.343640625 -0.9544976444374889 0.13528352933502108
0.3447890625 -0.9555715984681573 0.13499257432104278
0.3459375 -0.9568670036679624 0.1325181632111857
0.3470859375 -0.9553885522101413 0.13609124330952033
0.348234375 -0.9566285351514334 0.13467381923571858
0.3493828125 -0.955272561184861 0.13636583092648064
0.35053125 -0.9574537257116328 0.13487024514682744
0.3516796875 -0.9557111736016872 0.13840095996776308
0.352828125 -0.9529365299097039 0.13782676117534964
0.3539765625 -0.9540171179996142 0.13919355752025198
0.355125 -0.9554848064788025 0.1376945420191366
0.3562734375 -0.9542478876500438 0.13929767583635594
0.357421875 -0.9555005588217673 0.1402147158816317
0.3585703125 -0.9551928113256551 0.1413160477549525
0.35971875 -0.9545844545044027 0.14172925058515767
0.3608671875 -0.954043017230814 0.14278225442873238
0.362015625 -0.9546697510140696 0.14327641164343397
0.3631640625 -0.9537315869973855 0.14360945812454817
0.3643125 -0.9544561644615277 0.1451063784432794
0.3654609375 -0.9538007152458696 0.14544159901711823
0.366609375 -0.955039167114347 0.14554100635197026
0.3677578125 -0.9544393084886974 0.14679689478260854
0.36890625 -0.9543567846799119 0.14718070033178066
0.3700546875 -0.9534358454864678 0.14749037206739535
0.371203125 -0.9546216981240969 0.148924643966311
0.3723515625 -0.9538304071954344 0.14830025062694058
0.3735 -0.954738694786831 0.1498936251070177
0.3746484375 -0.9536013735053246 0.15007591726970082
0.375796875 -0.9537257862288304 0.15112076255099594
0.3769453125 -0.9533730006714791 0.15203577199213025
0.37809375 -0.9539925450949427 0.15278656720449507
0.3792421875 -0.953559442570814 0.15301630818662815
0.380390625 -0.9538784473639987 0.15460997923587214
0.3815390625 -0.9539845333117949 0.15529762174111103
0.3826875 -0.9539515065739129 0.15597725635424686
0.3838359375 -0.9549803610664603 0.15666605989075905
0.384984375 -0.9550741534076271 0.15643733794129833
0.3861328125 -0.9552521513405667 0.15682716113476086
0.38728125 -0.9548438361317799 0.15751241657087062
0.3884296875 -0.9548099514750152 0.15792091016161117
0.389578125 -0.9548473017580845 0.15848573915278993
0.3907265625 -0.9542886400523386 0.15914629387393953
0.391875 -0.9545952689738796 0.16119052497759734
0.3930234375 -0.954260466975289 0.16018916545981915
0.394171875 -0.9542422573979858 0.1608922458551414
0.3953203125 -0.9548508208852986 0.16216912135388611
0.39646875 -0.9543353100052285 0.16222509027995513
0.3976171875 -0.9546549950642303 0.16290227817642708
0.398765625 -0.954471806375154 0.16315866776852828
0.3999140625 -0.9546855828687157 0.1641284150022946
0.4010625 -0.954921321604325 0.16454035381311663
0.4022109375 -0.9553109124190086 0.16544808714669068
0.403359375 -0.9549774905805839 0.16542832084867876
0.4045078125 -0.9552839531543305 0.16528993147776122
0.40565625 -0.9541822548456853 0.16511038631018068
0.4068046875 -0.9544954516012569 0.1663978560601757
0.407953125 -0.9541874969387727 0.1664622239823466
0.4091015625 -0.9539955632933736 0.16814539330959088
0.41025 -0.9536066730054081 0.16770688417358082
0.4113984375 -0.9536024112483191 0.16798041774060454
0.412546875 -0.9537547744873605 0.1685982770120533
0.4136953125 -0.9537899764456466 0.16839779829355472
0.41484375 -0.9536021732489953 0.16937403642404403
0.4159921875 -0.9533882993906502 0.17041423620579899
0.417140625 -0.9535711504376718 0.17097769571175808
0.4182890625 -0.9534313845844737 0.1709838169216795
0.4194375 -0.9542530844636543 0.17176745562740514
0.4205859375 -0.953779344121733 0.1728276549017972
0.421734375 -0.9532466522782713 0.17296934089314794
0.4228828125 -0.9541034412118993 0.17305241497521054
0.42403125 -0.9537174018946588 0.1740635112083288
0.4251796875 -0.9540392416354639 0.17454175757718693
0.426328125 -0.9539391187375001 0.1756364215899229
0.4274765625 -0.9539761935364446 0.17596768352301495
0.428625 -0.9524143496375946 0.1751555488421587
0.4297734375 -0.9545010005543277 0.17641503205213974
0.430921875 -0.9535517388457755 0.17725922867426663
0.4320703125 -0.9526353934891529 0.17673785996196786
0.43321875 -0.9534676317300813 0.1781715027015298
0.4343671875 -0.9524064088643098 0.1771258954968065
0.435515625 -0.9534394360276818 0.1789606083919263
0.4366640625 -0.9532766898281966 0.17973185579871015
0.4378125 -0.9524536288314628 0.1801351097374535
0.4389609375 -0.9530634716194633 0.18000837770731715
0.440109375 -0.9535423336555344 0.18222609430043912
0.4412578125 -0.9520308882025388 0.1816784248749042
0.44240625 -0.952313090080329 0.18188772424804645
0.4435546875 -0.9521347731421834 0.18141849194567666
0.444703125 -0.9531016682800255 0.18272488491960304
0.4458515625 -0.9518817113391984 0.18376511069877638
0.447 -0.9533754435618345 0.1851885780700661
0.4481484375 -0.9509401076783253 0.18233795898164384
0.449296875 -0.9520502134040536 0.18537020353832734
0.4504453125 -0.9529786654761563 0.18525548763910038
0.45159375 -0.9525820330763282 0.18687698807619196
0.4527421875 -0.953212651178577 0.18579156777266825
0.453890625 -0.9535470143612015 0.18726171823769017
0.4550390625 -0.9533648906235813 0.1867230069910295
0.4561875 -0.9528097753203878 0.18658796860963844
0.4573359375 -0.9534529080688418 0.1880419706712455
0.458484375 -0.9533597398121381 0.18818410665768937
0.4596328125 -0.9539117784605426 0.18695280966405836
0.46078125 -0.9541010321227499 0.19125292037446467
0.4619296875 -0.9528491028278887 0.18950502932521573
0.463078125 -0.9537209398615389 0.1908584640812494
0.4642265625 -0.9523775735766533 0.19045034429317326
0.465375 -0.9536539145540841 0.19038829973746424
0.4665234375 -0.9535709395515901 0.19218818280728278
0.467671875 -0.9528326945248256 0.19079720396722016
0.4688203125 -0.9519570190293721 0.1939611163456011
0.46996875 -0.9532425834604539 0.19264402481577142
0.4711171875 -0.9523764857118868 0.19374970849657855
0.472265625 -0.9524599875261037 0.19458346745124402
0.4734140625 -0.9519379190387252 0.1938618060806618
0.4745625 -0.9518216227151758 0.1936866398811489
0.4757109375 -0.9519857711290839 0.1937609448031124
0.476859375 -0.9514600653374184 0.1939020378079066
0.4780078125 -0.9519096008834536 0.1944569109435934
0.47915625 -0.9514736663227241 0.19553425198032015
0.4803046875 -0.9507891637835784 0.19632227724373003
0.481453125 -0.9513841853961382 0.19649951207494815
0.4826015625 -0.9515179004981632 0.19702716634489603
0.48375 -0.950970532664533 0.19795346224990304
0.4848984375 -0.9510472689431178 0.19761649066837025
0.486046875 -0.9510591460711925 0.19802769613059662
0.4871953125 -0.95126552485313 0.19835008258459752
0.48834375 -0.9509041301146701 0.19765563407336112
0.4894921875 -0.950731801665509 0.19799773212907354
0.490640625 -0.9504051886218021 0.19849036084420946
0.4917890625 -0.9499916467065258 0.19847898289701657
0.4929375 -0.9491187816593463 0.19938280080471205
0.4940859375 -0.9494608892346176 0.19944372054626539
0.495234375 -0.9488605600609946 0.20036673496262913
0.4963828125 -0.9490532168258173 0.20086786110256247
0.49753125 -0.9492153957722737 0.20140387393322662
0.4986796875 -0.9484090360647172 0.20185825224234766
0.499828125 -0.9486240102728604 0.20352007490917592
0.5009765625 -0.9483977404828207 0.2040507985342156
0.502125 -0.9480135961879583 0.2049882549719414
0.5032734375 -0.9474985174524994 0.2055764386227873
0.504421875 -0.948449293228075 0.2058317650991302
0.5055703125 -0.9489868726652887 0.20690449568858194
0.50671875 -0.9483036386049537 0.2071085940139311
0.5078671875 -0.9484265302616441 0.20754505549649416
0.509015625 -0.9489498216989916 0.20846412879457593
0.5101640625 -0.9484720971019767 0.20927841001289477
0.5113125 -0.9501707085626875 0.2107019115937141
0.5124609375 -0.9495543077966352 0.21017881736974603
0.513609375 -0.9496615788016916 0.2108588102598382
0.5147578125 -0.9495013798052695 0.21075225897920347
0.51590625 -0.949268593581009 0.2110754376392289
0.5170546875 -0.9493419436153028 0.21201580687168123
0.518203125 -0.9492189759794101 0.21237568246940178
0.5193515625 -0.9492728602345889 0.21305290231541413
0.5205 -0.9480919269919118 0.21306433118308174
0.5216484375 -0.9481630241716179 0.21414814964542894
0.522796875 -0.9486296108290814 0.21467694201005683
0.5239453125 -0.9486653699625865 0.2153773333584218
0.52509375 -0.9486824594425596 0.21623767821935624
0.5262421875 -0.9490348933480358 0.21682089251013575
0.527390625 -0.9489432184669521 0.21740825449695583
0.5285390625 -0.9487417207576034 0.21813295984083036
0.5296875 -0.9479787420901672 0.2181888217989228
0.5308359375 -0.9487283782263825 0.21871556066309572
0.531984375 -0.9489764110474416 0.21980937060566705
0.5331328125 -0.9481955938288461 0.21984468847026234
0.53428125 -0.9484223036871201 0.22093328462572429
0.5354296875 -0.9488014398354415 0.22136155633937038
0.536578125 -0.9482597524757372 0.2219540596150864
0.5377265625 -0.9488290731423178 0.2224065796695806
0.538875 -0.9487012144856791 0.22319255752313594
0.5400234375 -0.9483381387636374 0.2245399492767461
0.541171875 -0.948725785072166 0.22444885760830796
0.5423203125 -0.9488520800399622 0.22503613544657083
0.54346875 -0.9486227560395559 0.2247006115712974
0.5446171875 -0.9491145749610936 0.22578025325932372
0.545765625 -0.9488177244731192 0.2262621934818143
0.5469140625 -0.9487437350532966 0.22647155168273717
0.5480625 -0.9486654320666335 0.22654553797425195
0.5492109375 -0.9489169879989463 0.2276468328156036
0.550359375 -0.9485015330908697 0.22851013381711088
0.5515078125 -0.9484314238723172 0.22889772907065334
0.55265625 -0.9483888169744559 0.2292013100607127
0.5538046875 -0.9479137523756096 0.22933610291261225
0.554953125 -0.9480593133602085 0.23068637940765802
0.5561015625 -0.9479598749220215 0.23085875015405707
0.55725 -0.9479013619147745 0.23173716612972456
0.5583984375 -0.9479201421482212 0.23198723520342204
0.559546875 -0.9479803973606439 0.23303424362074332
0.5606953125 -0.9487340019016757 0.2331100547516244
0.56184375 -0.9482162826162777 0.23348218164646278
0.5629921875 -0.9467287162291249 0.23464803395885664
0.564140625 -0.9469569347784341 0.23516930560232022
0.5652890625 -0.9471480707499111 0.2355305612986769
0.5664375 -0.9465856912424961 0.23645625679289647
0.5675859375 -0.9467432480292932 0.23687482465534107
0.568734375 -0.9461632870219162 0.23713783022808313
0.5698828125 -0.9463476169756435 0.23707968945645874
0.57103125 -0.9461952146394579 0.23844936139838263
0.5721796875 -0.9462539329988204 0.2388188384808783
0.573328125 -0.945680822852814 0.23937539499929947
0.5744765625 -0.9456058779362021 0.24025241268817282
0.575625 -0.9457743552174085 0.24079870200934148
0.5767734375 -0.9458452229139145 0.24242986754126788
0.577921875 -0.9465698747349081 0.24265599384989206
0.5790703125 -0.9449534784101499 0.24330168090446147
0.58021875 -0.9452693393124466 0.24393088886002803
0.5813671875 -0.9451446436854922 0.24408534860639766
0.582515625 -0.9448279705486972 0.24562402979893305
0.5836640625 -0.9446907308283238 0.24604807731516343
0.5848125 -0.9443421067611293 0.24641025068508474
0.5859609375 -0.9445693144839731 0.24772641176364696
0.587109375 -0.944245993874253 0.24821908931728942
0.5882578125 -0.9442804396074814 0.24857110681049754
0.58940625 -0.9441875682099165 0.24894563513449555
0.5905546875 -0.9444525898789287 0.24989045910718996
0.591703125 -0.9442028013413862 0.25052950048144135
0.5928515625 -0.9440448862847586 0.25083827474610987
0.594 -0.943878377520355 0.2512819816050902
0.5951484375 -0.9444204706088407 0.25183358722190985
0.596296875 -0.9438289355555811 0.2525041470770094
0.5974453125 -0.944111481343513 0.2529041823716348
0.59859375 -0.9447153674643736 0.2532124237835829
0.5997421875 -0.9444789028811539 0.2543154122688232
0.600890625 -0.9446553729162507 0.2548948138671858
0.6020390625 -0.9445609736851573 0.2551547206033565
0.6031875 -0.9444518336254615 0.2561652883454436
0.6043359375 -0.9447137927953525 0.25654809651724064
0.605484375 -0.9450285708912616 0.2569694596892148
0.6066328125 -0.9449639661993171 0.2575021024203699
0.60778125 -0.9456021961731766 0.2577109030384172
0.6089296875 -0.9446889329795587 0.2574387636571774
0.610078125 -0.9449545739429195 0.2574178925949166
0.6112265625 -0.9448360824033589 0.25793157130603117
0.612375 -0.9445780926708551 0.25870867043372603
0.6135234375 -0.9445235880287082 0.2588312437359772
0.614671875 -0.943980502756613 0.25942406313861543
0.6158203125 -0.9433840445258531 0.2598290222000376
0.61696875 -0.943096849120219 0.2601576963837441
0.6181171875 -0.9434322985982033 0.26068753439155024
0.619265625 -0.9431784817819834 0.26131685559307477
0.6204140625 -0.9433789880091583 0.2620008790522141
0.6215625 -0.9435920288325761 0.262755387323817
0.6227109375 -0.9434419691145871 0.26284972081750035
0.623859375 -0.9434994907238187 0.2635102280023759
0.6250078125 -0.9438610399350603 0.2636303810732466
0.62615625 -0.9435298256194602 0.26418610582333213
0.6273046875 -0.9432479783963378 0.2635159153883462
0.628453125 -0.9432117371965769 0.2647469237785352
0.6296015625 -0.9428190520229455 0.2652475568077736
0.63075 -0.9432068064352405 0.2667634530480565
0.6318984375 -0.9424385414250082 0.26621161044290176
0.633046875 -0.9426604286648107 0.26671737463031087
0.6341953125 -0.9410471126688469 0.26735725273307964
0.63534375 -0.9395515345514465 0.26661322610391347
0.6364921875 -0.9415377747707552 0.2675689934610668
0.637640625 -0.9417378956163388 0.26799380011324325
0.6387890625 -0.9403435335956725 0.2689117147127772
0.6399375 -0.9414299109961822 0.26894755430366324
0.6410859375 -0.9408506146013855 0.26922842638138655
0.642234375 -0.9392299028496196 0.27085895151405354
0.6433828125 -0.9409433724020291 0.2704375925171946
0.64453125 -0.9406633026077841 0.2708798000244418
0.6456796875 -0.9394855284076168 0.2722981466975901
0.646828125 -0.9408971753075492 0.27176800126562944
0.6479765625 -0.9407121479275247 0.2724358774573226
0.649125 -0.9394944483545824 0.27547453374773356
0.6502734375 -0.9400601349157931 0.27413010578627695
0.651421875 -0.9404634408294754 0.27398533419202503
0.6525703125 -0.9404923581443264 0.27501960906104045
0.65371875 -0.9403532040612053 0.27550634636433574
0.6548671875 -0.9407387551557286 0.2750568868278038
0.656015625 -0.9396750571611144 0.2785966026805049
0.6571640625 -0.9397637565330331 0.2764819075891851
0.6583125 -0.9399428191809871 0.27701213874667185
0.6594609375 -0.9395147639525301 0.2768357818970757
0.660609375 -0.9396527124286104 0.2778417423335381
0.6617578125 -0.9390727369687716 0.2789271312529801
0.66290625 -0.9394075251333389 0.27962496995263564
0.6640546875 -0.9401058209957532 0.2804812022790166
0.665203125 -0.9400819222958576 0.2816408634104039
0.6663515625 -0.9389130783561342 0.2810100500260735
0.6675 -0.9396757863988394 0.28157658348356984
0.6686484375 -0.9385748263924614 0.28258531396770287
0.669796875 -0.939341608587011 0.2833534127902094
0.6709453125 -0.9382006718757143 0.2842763701503356
0.67209375 -0.939660436334106 0.28459242328922074
0.6732421875 -0.9393766286686047 0.28462693425424085
0.674390625 -0.9392668900351455 0.28482522144963024
0.6755390625 -0.939054540300553 0.2864085835217882
0.6766875 -0.9390343602729134 0.2860526173606434
0.6778359375 -0.9389026331292207 0.2857516997912029
0.678984375 -0.9389009080379195 0.28708916712208166
0.6801328125 -0.9388155034244695 0.28716771565038546
0.68128125 -0.939014357431276 0.2881426878705908
0.6824296875 -0.9387640257371557 0.28852633207676254
0.683578125 -0.938966687282029 0.2887406817111914
0.6847265625 -0.9385485822660811 0.289473567921506
0.685875 -0.9386509249462207 0.2903181904783851
0.6870234375 -0.9388778709629436 0.2904695243090961
0.688171875 -0.9384843562891929 0.29109244210927815
0.6893203125 -0.9392347976316681 0.29144797882269347
0.69046875 -0.9388969289567467 0.2914085944505721
0.6916171875 -0.9387542903232182 0.291878211655174
0.692765625 -0.9379854814258846 0.2920670803600794
0.6939140625 -0.9379024718821558 0.2926673873683503
0.6950625 -0.9371535872632512 0.2931962400751827
0.6962109375 -0.9375126373287301 0.2942352717115587
0.697359375 -0.9374168769440504 0.2946535232773517
0.6985078125 -0.9373278442794737 0.29553565850564945
0.69965625 -0.9374235009649438 0.29608745862966573
0.7008046875 -0.9371215714266762 0.2964158765726041
0.701953125 -0.9366647755245243 0.2969099661093182
0.7031015625 -0.9369535946276084 0.29748944345075423
0.70425 -0.9366729166991653 0.2981634330114776
0.7053984375 -0.9360267563487276 0.2979956297401247
0.706546875 -0.9364373620126285 0.29897667872721684
0.7076953125 -0.936217457469248 0.2994221811124431
0.70884375 -0.9360876476099345 0.2999579217179975
0.7099921875 -0.9362019239672467 0.3002552420151072
0.711140625 -0.9356047535325092 0.30040457648932384
0.7122890625 -0.9354249642570044 0.3014560896428468
0.7134375 -0.9355990938892231 0.30291454977029747
0.7145859375 -0.9348899513674002 0.3033251773539245
0.715734375 -0.9348530493739273 0.30395313519274125
0.7168828125 -0.9347265957950135 0.3044429348616989
0.71803125 -0.9347863336624406 0.30554195560130304
0.7191796875 -0.9341995634781305 0.305125964948096
0.720328125 -0.9340799098043554 0.3072113382685081
0.7214765625 -0.9336880418599378 0.3067495096975987
0.722625 -0.9334453736264952 0.30763590099562177
0.7237734375 -0.933390481055299 0.30833130703476636
0.724921875 -0.9330397475764544 0.3092628608791446
0.7260703125 -0.9330295358234951 0.309016783105649
0.72721875 -0.932476547105787 0.3100220974641269
0.7283671875 -0.9326392186728483 0.31078680246013735
0.729515625 -0.9320118777537301 0.31165020475047134
0.7306640625 -0.9321034704125392 0.3123143514184369
0.7318125 -0.9320453495944068 0.3128926671636881
0.7329609375 -0.9320693942004333 0.31359664485465305
0.734109375 -0.93191860972764 0.3144565052608188
0.7352578125 -0.9317932070503727 0.31518679155993756
0.73640625 -0.9315589690424702 0.3158310493903215
0.7375546875 -0.931566149018605 0.3167915178452632
0.738703125 -0.9313780053503131 0.3174358563016773
0.7398515625 -0.9309603721806028 0.3179018636330788
0.741 -0.9310177464361485 0.3187474235154892
0.7421484375 -0.9307537923729021 0.31932191144605915
