! Created with skrf 1.9.0 (http://scikit-rf.org).
# GHz S RI R 50.0 
!freq ReS11 ImS11
0.3 0.8288962194546885 0.4516799431404914
0.3011484375 0.828567728785001 0.45355069764258127
0.302296875 0.8265562212005728 0.45467970408937475
0.3034453125 0.8278341030144427 0.45647504788042126
0.30459375 0.8288268623377475 0.45739121276371086
0.3057421875 0.8284850369057785 0.45847063569873525
0.306890625 0.8257383731424142 0.46011384089038954
0.3080390625 0.8247963328451591 0.46181763413038956
0.3091875 0.8252734585056768 0.46281920315067027
0.3103359375 0.8217908504592117 0.4654973730268839
0.311484375 0.8198899296279218 0.4667327879781708
0.3126328125 0.8209957971243029 0.46726185409936294
0.31378125 0.8200624999831369 0.46858663678846113
0.3149296875 0.818659602579668 0.4697100537114121
0.316078125 0.8195246031997292 0.4709603741274299
0.3172265625 0.8184312578461627 0.47215379662379164
0.318375 0.8174891701946614 0.47325229718843526
0.3195234375 0.8169318489050879 0.47542627965041584
0.320671875 0.8159668267846477 0.4766155281908541
0.3218203125 0.8164046615463714 0.4776960142183091
0.32296875 0.8161284562843951 0.48132248516144455
0.3241171875 0.8162409263025587 0.48103706594444806
0.325265625 0.81507579073957 0.48250013032226824
0.3264140625 0.8145951235587989 0.48379942044857144
0.3275625 0.8133581050991578 0.4842171010927887
0.3287109375 0.8127928451993971 0.4872914314850807
0.329859375 0.8126746744383466 0.4882901101833057
0.3310078125 0.8120069879138392 0.48954297771310634
0.33215625 0.8122176579127212 0.49113085405043444
0.3333046875 0.8104378604737293 0.4920093506756834
0.334453125 0.8090612274152431 0.4927658293320466
0.3356015625 0.8097045851853057 0.49599424304615763
0.33675 0.8074043418744149 0.4959061967076596
0.3378984375 0.8071881579069906 0.4981158116510926
0.339046875 0.8073734479849417 0.49917167132657436
0.3401953125 0.8064617646868376 0.5004851927561117
0.34134375 0.8054688082019553 0.5014409129039872
0.3424921875 0.8054766270315091 0.5035279056842744
0.343640625 0.8046122310548147 0.5048007122277993
0.3447890625 0.8034174893770142 0.5054946503934916
0.3459375 0.8015210990017276 0.5064172956859739
0.3470859375 0.8023060276290501 0.5092582530848124
0.348234375 0.8014328698018169 0.5110113982289571
0.3493828125 0.8007512862568362 0.513006252687615
0.35053125 0.7980485721359298 0.5133347073300326
0.3516796875 0.7989150618833706 0.5153830066245124
0.352828125 0.7991407760473297 0.5171350330318466
0.3539765625 0.7973540258769878 0.5180479568691494
0.355125 0.7966185279252314 0.5183539995474535
0.3562734375 0.7961712615781413 0.5211249715944649
0.357421875 0.7955909832988914 0.5233079854311201
0.3585703125 0.7942887076330714 0.5244949325291581
0.35971875 0.7944547759887411 0.5257370232799196
0.3608671875 0.7933063217244154 0.5278558311524983
0.362015625 0.7941175866357953 0.5278253155936699
0.3631640625 0.7933095581477438 0.5298243943006625
0.3643125 0.7920000427808901 0.5326673040655472
0.3654609375 0.7917928587096074 0.5329368283537073
0.366609375 0.7891071362862299 0.5350670310757779
0.3677578125 0.7885601208350284 0.5370279831006526
0.36890625 0.7872969368634049 0.5386606217355668
0.3700546875 0.7868864755781599 0.5397070914682648
0.371203125 0.7857493166510506 0.541578374049173
0.3723515625 0.7847557421263687 0.542772654365799
0.3735 0.7840549278212923 0.5450194539612065
0.3746484375 0.7833718101469589 0.5473778629823062
0.375796875 0.7819559310915475 0.5473883708558771
0.3769453125 0.7820042980711787 0.5470640714873737
0.37809375 0.78009435863275 0.5488948386371303
0.3792421875 0.7789066179683477 0.5518918354168134
0.380390625 0.7781486733235277 0.552000940222787
0.3815390625 0.7774632054944739 0.5547552428820804
0.3826875 0.7764715305743126 0.5567798764468337
0.3838359375 0.7754105128262941 0.5582127893844937
0.384984375 0.7741215078972715 0.5598157193377148
0.3861328125 0.773325225239993 0.5615889199887683
0.38728125 0.7719751340250919 0.5634426835475013
0.3884296875 0.7719310236687643 0.5647190940877642
0.389578125 0.7711909926412921 0.5660514746641176
0.3907265625 0.7693294791685065 0.5671680069741609
0.391875 0.7684435315706548 0.5690061300704321
0.3930234375 0.7682838768677007 0.571095746331699
0.394171875 0.7664212565319017 0.5713733144592144
0.3953203125 0.7655010516003475 0.5734168008197053
0.39646875 0.763937279312297 0.5751650525488272
0.3976171875 0.762524075076728 0.5763504350658777
0.398765625 0.7621874202219372 0.5767706847437581
0.3999140625 0.7619319768173771 0.5773132450588333
0.4010625 0.7617605997172152 0.579032643153174
0.4022109375 0.761011279391933 0.5805004596259653
0.403359375 0.7603466558788865 0.5819794558840359
0.4045078125 0.759437026070706 0.5847941734864829
0.40565625 0.758012350345596 0.5870268363555649
0.4068046875 0.7564400123876382 0.5894201953396679
0.407953125 0.7558503204126977 0.5904646529618731
0.4091015625 0.7549329281598193 0.5919380869365094
0.41025 0.7532077396279085 0.593801370358936
0.4113984375 0.7523503366246169 0.5941423351333359
0.412546875 0.7516548789040242 0.5960533182497683
0.4136953125 0.7507445141501208 0.598548326566851
0.41484375 0.7499741539869715 0.6002099047003264
0.4159921875 0.7482687489745026 0.6010049985964618
0.417140625 0.7482170703316442 0.6035488602376896
0.4182890625 0.7472511157028473 0.6052508049849256
0.4194375 0.7473777568481659 0.6061429220145078
0.4205859375 0.7447662719417136 0.608506263106064
0.421734375 0.7420675624288056 0.609114039995517
0.4228828125 0.7443915279509526 0.6105042194769761
0.42403125 0.7407458918527664 0.6128523140644928
0.4251796875 0.7406484907379237 0.6144854799697871
0.426328125 0.7402267655933471 0.6147463478113373
0.4274765625 0.7389398363756601 0.6164082317867792
0.428625 0.7387912374232162 0.618492385933888
0.4297734375 0.7362064256912407 0.6206609629355981
0.430921875 0.735974955578202 0.6220704999871484
0.4320703125 0.732437200809262 0.6232982623918238
0.43321875 0.7343769796232251 0.6247209357818768
0.4343671875 0.7299170785327957 0.6283539779376953
0.435515625 0.7314767034913471 0.6274048464149878
0.4366640625 0.7301368607722513 0.6293537225362317
0.4378125 0.7273486182892649 0.6318655672985121
0.4389609375 0.7274511672870791 0.6333779417199066
0.440109375 0.7250061519311164 0.6324466272596063
0.4412578125 0.7252874821134688 0.6359888763011763
0.44240625 0.7246654647016171 0.6391568783237568
0.4435546875 0.7211870987715377 0.6406686798183394
0.444703125 0.7251385545217595 0.6399565695964777
0.4458515625 0.7205141227369107 0.6411965129798277
0.447 0.7217954702162123 0.6417489377556902
0.4481484375 0.7185540296277724 0.6476505386433569
0.449296875 0.7182020104347864 0.6452368827966608
0.4504453125 0.7175025741168672 0.6480224298864311
0.45159375 0.7158885281695488 0.6487547318406484
0.4527421875 0.7155871601006347 0.6504891374453006
0.453890625 0.7143178262309395 0.6492232573421228
0.4550390625 0.7144568390943246 0.6526755993514426
0.4561875 0.7124028947394777 0.6542423239943147
0.4573359375 0.7127401302780547 0.6564690734149914
0.458484375 0.7108375405051313 0.6576227042453597
0.4596328125 0.7105748427277497 0.6608773559183644
0.46078125 0.7089945426010607 0.6603494547666832
0.4619296875 0.7073120946213599 0.6617810473688167
0.463078125 0.7070713513069169 0.6617049949531448
0.4642265625 0.7060682888551703 0.6645892527345717
0.465375 0.7047148141390785 0.665976446316936
0.4665234375 0.7035326823498959 0.6666024055334177
0.467671875 0.7018424893623794 0.66810192930545
0.4688203125 0.7008837027947984 0.6692762111770353
0.46996875 0.7003902798974158 0.6711661143003145
0.4711171875 0.6981947379197513 0.6729828789369598
0.472265625 0.6979009658491933 0.6741778705035324
0.4734140625 0.696830889768893 0.6754594723770022
0.4745625 0.6950995014010324 0.6764359148255095
0.4757109375 0.693605035601119 0.6777415335373376
0.476859375 0.6926989696224704 0.6787695643822753
0.4780078125 0.6911600962400026 0.6802059414309789
0.47915625 0.6905627475409737 0.6812796757308631
0.4803046875 0.6903357651340407 0.682687324617639
0.481453125 0.6897344395662719 0.6839902513949184
0.4826015625 0.6891099945892185 0.685276267175364
0.48375 0.6879200922627206 0.6873425669627182
0.4848984375 0.6874518508652965 0.6882046245257285
0.486046875 0.6862712668159316 0.6898701472651902
0.4871953125 0.6848998683740258 0.6912026848746747
0.48834375 0.6843129251916731 0.6936136682723866
0.4894921875 0.6832609619417156 0.695994269147454
0.490640625 0.6813280702734067 0.6970307772282169
0.4917890625 0.6801380563437094 0.6980931651724158
0.4929375 0.6791016212633258 0.6989701654991165
0.4940859375 0.6779922078291092 0.7007746483580748
0.495234375 0.6779979105693752 0.7022693978841301
0.4963828125 0.6759168945036702 0.7033124025555618
0.49753125 0.6739404676854457 0.7050626893550218
0.4986796875 0.6738442395854962 0.7063864108056241
0.499828125 0.6718779813943092 0.7080756778422309
0.5009765625 0.6717793370914665 0.7095680712887958
0.502125 0.6701223611322928 0.7098981892215638
0.5032734375 0.6688103635274097 0.711664906563269
0.504421875 0.6682555914440813 0.7127003528626064
0.5055703125 0.6668561390776598 0.7139421315607982
0.50671875 0.6653984508482143 0.7151550975855758
0.5078671875 0.6642844862005669 0.7161167974388749
0.509015625 0.6636325047027486 0.7180137728061347
0.5101640625 0.66175910215529 0.7196540678879018
0.5113125 0.6609353876957356 0.7204225792034943
0.5124609375 0.658719752587765 0.7219254535157468
0.513609375 0.6574709006282936 0.7226315121219864
0.5147578125 0.6566780814192041 0.7237859093731835
0.51590625 0.6551925486401198 0.724566849679332
0.5170546875 0.6539050978655326 0.7264206054014137
0.518203125 0.6534153054351898 0.7271401626108258
0.5193515625 0.6524879279946619 0.7286312177539195
0.5205 0.6496667186067594 0.730497592992502
0.5216484375 0.6495466940785852 0.7308922433298066
0.522796875 0.6486071763913939 0.7318960224757622
0.5239453125 0.64740772586973 0.7335814018469358
0.52509375 0.6464515086730248 0.734844021298956
0.5262421875 0.6448352466937898 0.735884694585983
0.527390625 0.643615739099131 0.7370148405571548
0.5285390625 0.642304064914675 0.7384059838806891
0.5296875 0.641255872280824 0.7390875783243489
0.5308359375 0.6396750185241351 0.7406789941759215
0.531984375 0.6388381996897765 0.7417055076185526
0.5331328125 0.6379764381004326 0.742349777057299
0.53428125 0.6363042919300034 0.7430789982570216
0.5354296875 0.6348159900270538 0.744214951289248
0.536578125 0.6339975685221989 0.7464050026012126
0.5377265625 0.6327857910950491 0.7467113986678645
0.538875 0.6316026223312566 0.7476118487750895
0.5400234375 0.6306986450847506 0.7489435510700604
0.541171875 0.629109800520238 0.749959982203517
0.5423203125 0.627630790039222 0.7515700896719044
0.54346875 0.6267155303067503 0.7518591127642509
0.5446171875 0.6258681373273423 0.7537800863629249
0.545765625 0.6250210146573558 0.7553627327692582
0.5469140625 0.6237651471293661 0.7572960332234764
0.5480625 0.6223363305877472 0.7575823419507424
0.5492109375 0.6210765057338832 0.7592504797934949
0.550359375 0.6201010968446423 0.760634773875883
0.5515078125 0.6191452820462304 0.7615938304406602
0.55265625 0.6184583006528191 0.7620265601558665
0.5538046875 0.6165551972400198 0.7630890092414795
0.554953125 0.614861454066329 0.7651465480426801
0.5561015625 0.613456054266314 0.7656541712632144
0.55725 0.6123332814777999 0.7670929787261669
0.5583984375 0.6106204191136009 0.7672867261439164
0.559546875 0.6094944224961053 0.7695472484225703
0.5606953125 0.607588069060495 0.7715984303931102
0.56184375 0.6061748841867931 0.772588602376095
0.5629921875 0.6065351825684707 0.7733316035936071
0.564140625 0.6056314038333286 0.7749171983496129
0.5652890625 0.6031759998493991 0.7765424964650658
0.5664375 0.6030664958004583 0.7766796838308297
0.5675859375 0.602162392098093 0.7792940438011942
0.568734375 0.6001954186109624 0.7796713599490357
0.5698828125 0.598427645218782 0.7824902992765344
0.57103125 0.5980053260722765 0.7830479165153775
0.5721796875 0.5975931429335866 0.7840050203429809
0.573328125 0.5961786003282656 0.7857456299968797
0.5744765625 0.5950620863918166 0.7850785666453687
0.575625 0.5943112280329217 0.7887897899014141
0.5767734375 0.5920506984794061 0.7897183227980331
0.577921875 0.5912947708589272 0.7907672068114804
0.5790703125 0.5895378294477235 0.789876391320769
0.58021875 0.5870990772799419 0.7925484487442794
0.5813671875 0.5861465374725582 0.795256976059731
0.582515625 0.5842971105689961 0.7950698831063845
0.5836640625 0.5823481318731422 0.7962975901797723
0.5848125 0.580283549191955 0.7985576769796768
0.5859609375 0.5785423702493421 0.7993718028161756
0.587109375 0.5768020536370008 0.8012102809336569
0.5882578125 0.5756006940621274 0.8017407165830358
0.58940625 0.574139639297449 0.8026911557936747
0.5905546875 0.5733209102797705 0.8037929554527651
0.591703125 0.5715986532207029 0.8050095235598529
0.5928515625 0.5699878359567262 0.8064214887604911
0.594 0.5680441674290888 0.807771480952141
0.5951484375 0.5669354683374868 0.8089656761391397
0.596296875 0.5647803110666352 0.8095247020729907
0.5974453125 0.5630510049522124 0.8101796979871145
0.59859375 0.5618132164669842 0.810982911067745
0.5997421875 0.5602698492659269 0.8109973304738394
0.600890625 0.5598518084560371 0.8113885010233175
0.6020390625 0.5588754823074276 0.8121995559773401
0.6031875 0.558055763912728 0.8142713457917172
0.6043359375 0.5570283038309938 0.8158632455860061
0.605484375 0.5557216225464522 0.8172116623585913
0.6066328125 0.5539206289623213 0.8182665288449942
0.60778125 0.5517069474280264 0.820121717807845
0.6089296875 0.5510076824266006 0.8228865585960269
0.610078125 0.5490948827424635 0.8235965901603804
0.6112265625 0.5476431518499185 0.8244510042718265
0.612375 0.5459659349620392 0.8257046425984104
0.6135234375 0.5451052291359523 0.8265786577396963
0.614671875 0.54193557099273 0.8266134783384407
0.6158203125 0.540447941324341 0.8287892590384962
0.61696875 0.5393012149543351 0.8297488367170441
0.6181171875 0.538059438527229 0.8313925438791141
0.619265625 0.5380505087371742 0.8319784722140424
0.6204140625 0.5368394327585821 0.8331227137575854
0.6215625 0.5347809915643609 0.8335739804586375
0.6227109375 0.5353679917410759 0.8358401688161371
0.623859375 0.5323324784747254 0.8353202565115629
0.6250078125 0.5315549822124144 0.8365303556213974
0.62615625 0.5291444234529878 0.8375097810415009
0.6273046875 0.5278291466664432 0.8385831963900792
0.628453125 0.5262566584601382 0.8405974984201235
0.6296015625 0.5248613264290741 0.8413253275155721
0.63075 0.5230136970764189 0.8408385037932222
0.6318984375 0.5220322983844279 0.8420539702893861
0.633046875 0.5198989580836191 0.8430163195935361
0.6341953125 0.519073764529381 0.8441625902846649
0.63534375 0.5161064066888968 0.8470044304913178
0.6364921875 0.5172022620764829 0.8481362252011276
0.637640625 0.5156105000010531 0.8495285910820943
0.6387890625 0.5124647982383874 0.8505980329081243
0.6399375 0.513031578349162 0.8524090103217739
0.6410859375 0.5109541415324801 0.8531804084995214
0.642234375 0.5080921488367813 0.8528035538702334
0.6433828125 0.5090329398056186 0.8550871338841768
0.64453125 0.508234483583194 0.8560092615630709
0.6456796875 0.5056867528814148 0.8576299920626494
0.646828125 0.5041411641376865 0.8592258758312291
0.6479765625 0.5020441237313239 0.8597668062043787
0.649125 0.4992116402671021 0.8609368407778952
0.6502734375 0.49977142573792316 0.8603414980047437
0.651421875 0.4974415610659322 0.8632698808317991
0.6525703125 0.4955311888442668 0.8638399765752529
0.65371875 0.4949799713209388 0.8655707184955002
0.6548671875 0.4930656377146082 0.8678955243734594
0.656015625 0.4914002703369123 0.8675986156638728
0.6571640625 0.4906374827798846 0.8691294906143296
0.6583125 0.48802654494476433 0.8696001043380972
0.6594609375 0.48671545902823493 0.8712538841710527
0.660609375 0.483991810457179 0.8719863649397498
0.6617578125 0.483293314899502 0.8728485731636138
0.66290625 0.48149297919866285 0.8740364306851396
0.6640546875 0.4808341648697725 0.8753543504841585
0.665203125 0.47895781867568665 0.8751298711229608
0.6663515625 0.477170844871017 0.8753280374234844
0.6675 0.4765342980703799 0.8766601374220557
0.6686484375 0.4731150256030229 0.8776130950697377
0.669796875 0.4720119917859902 0.879009485160549
0.6709453125 0.4694651847413945 0.8799318577184954
0.67209375 0.4680291269654268 0.8806690320309749
0.6732421875 0.4664232491267396 0.8809860165898535
0.674390625 0.465727806029001 0.8819343279253368
0.6755390625 0.4634544707343845 0.8829381848098203
0.6766875 0.46203891095399297 0.8836432988229854
0.6778359375 0.4611493428826763 0.8846210979796765
0.678984375 0.45964207475178387 0.8860986467435431
0.6801328125 0.45836542363859856 0.8862593114435892
0.68128125 0.4566212828400855 0.8870941442003856
0.6824296875 0.4551288081737662 0.8875727020192375
0.683578125 0.4541741912001035 0.8886002618104158
0.6847265625 0.4525769942370409 0.8892303468576132
0.685875 0.4514887900988811 0.8910480479068906
0.6870234375 0.4499055672337867 0.891637546092167
0.688171875 0.44846061694863215 0.8923450331500867
0.6893203125 0.4460585320636127 0.8929676912372875
0.69046875 0.44617042855282474 0.8947542557595436
0.6916171875 0.4429307276164805 0.8952799738123438
0.692765625 0.44210932746137743 0.8955375030972978
0.6939140625 0.44062271364051775 0.8964062820020489
0.6950625 0.4389469224344772 0.8971472192068424
0.6962109375 0.4380576950848617 0.897545098643563
0.697359375 0.43783817773762124 0.8979035844402828
0.6985078125 0.4354825568517179 0.8992646110591433
0.69965625 0.43368922709305036 0.8995751440339981
0.7008046875 0.43274647074108186 0.9002747271991279
0.701953125 0.43042387427410056 0.9007947806981076
0.7031015625 0.42950129188494174 0.9015593412225363
0.70425 0.4285712023001952 0.9025422403130454
0.7053984375 0.42681793985895783 0.9040232391556393
0.706546875 0.42569483108071293 0.9049883869613446
0.7076953125 0.42588938532810466 0.9056826723803755
0.70884375 0.4244092809616941 0.9069111112535413
0.7099921875 0.42329894358107084 0.9078099805780279
0.711140625 0.4204523800660808 0.9095592659852467
0.7122890625 0.4197846663321134 0.910063122218402
0.7134375 0.41856166337588185 0.9110710535695564
0.7145859375 0.4170742928367902 0.9129081087038714
0.715734375 0.4157067725892557 0.9138831507263692
0.7168828125 0.41375099036258556 0.914095537428694
0.71803125 0.4114534397281123 0.9151825261313383
0.7191796875 0.409039755943685 0.9160011181487557
0.720328125 0.4079636391522723 0.9164102205503264
0.7214765625 0.40619422591947785 0.9166001353439175
0.722625 0.4049560587314653 0.9182757837129022
0.7237734375 0.40346310741362024 0.9190364868924101
0.724921875 0.4018581975811123 0.9199442189671301
0.7260703125 0.4003576048681966 0.9209910785795606
0.72721875 0.3988058538460941 0.922360534767283
0.7283671875 0.39702833830474177 0.9223977763579376
0.729515625 0.39481918860828724 0.9241508155946809
0.7306640625 0.3931713004743329 0.9252023632870643
0.7318125 0.3908536048345425 0.924817632220249
0.7329609375 0.389534689155464 0.9252376370195049
0.734109375 0.388053187640923 0.9265229216867295
0.7352578125 0.3871898524311232 0.9275623297648933
0.73640625 0.3847312008129532 0.9284011463980383
0.7375546875 0.3826285259892594 0.9289905360538742
0.738703125 0.3809578803316911 0.930417512701783
0.7398515625 0.3796243004729224 0.9313360167684657
0.741 0.37798809695162416 0.9315598242855982
0.7421484375 0.37481267171615695 0.9315069658120214
0.743296875 0.3736904904296015 0.932576478634748
0.7444453125 0.37226426007378577 0.9341246322163886
0.74559375 0.3703770109335718 0.9348585180764075
0.7467421875 0.3699703934729027 0.9346236620408463
0.747890625 0.36703407388828485 0.9366402197860311
0.7490390625 0.3648059890595311 0.9375104870769296
0.7501875 0.36317697714126707 0.9371661213453646
0.7513359375 0.36045730158002925 0.9378985105631815
0.752484375 0.3589411738191574 0.9379563811729991
0.7536328125 0.3571477009232657 0.9400199034704847
0.75478125 0.3546570357882528 0.9412464355157631
0.7559296875 0.3529552611372653 0.940356143125929
0.757078125 0.35132937881606885 0.94092348669786
