! Created with skrf 1.9.0 (http://scikit-rf.org).
# GHz S RI R 50.0 
!freq ReS11 ImS11
0.3 -0.9119489554776673 0.34846103774556864
0.3011484375 -0.9107682550485909 0.35241196270744735
0.302296875 -0.9099114189038706 0.3548437837620201
0.3034453125 -0.9109158799263709 0.3561949915846192
0.30459375 -0.9107955456069807 0.35853594887112317
0.3057421875 -0.9109717939873582 0.3591097502629036
0.306890625 -0.9111271743143738 0.3613724740715261
0.3080390625 -0.9115867752908989 0.36266561375154943
0.3091875 -0.91222334321025 0.36303960488491316
0.3103359375 -0.9108589741688706 0.3641456594124407
0.311484375 -0.9111176069120521 0.3666729304220915
0.3126328125 -0.909484325272095 0.3659507744295993
0.31378125 -0.9105455654804682 0.36799545021933405
0.3149296875 -0.9092656738020226 0.36897182227365866
0.316078125 -0.9095972806651169 0.37110367145226264
0.3172265625 -0.9104691853764749 0.37331388917970126
0.318375 -0.9087497607176924 0.3720035810058307
0.3195234375 -0.9070723758421513 0.376310412803441
0.320671875 -0.9067704424419503 0.37460739645853214
0.3218203125 -0.9067025901580892 0.3757617741787824
0.32296875 -0.9055899694075229 0.3755293986678079
0.3241171875 -0.9051311554936716 0.3803830953993449
0.325265625 -0.9041954196004787 0.38092248625756464
0.3264140625 -0.9052591952697597 0.38224332396679367
0.3275625 -0.9063397866445626 0.3831933632999013
0.3287109375 -0.902984995002174 0.3833364513548725
0.329859375 -0.9021807910712305 0.3864007650742226
0.3310078125 -0.9025215367382873 0.3868386092317882
0.33215625 -0.9005473055770892 0.38914024805197034
0.3333046875 -0.9013862692157865 0.3864296343890758
0.334453125 -0.9012324030298282 0.3883725429569038
0.3356015625 -0.8990074766193663 0.39230198263143157
0.33675 -0.8994906750337766 0.3924880788066287
0.3378984375 -0.8986157466160186 0.39478169451626566
0.339046875 -0.8980863886232648 0.3951866326358593
0.3401953125 -0.8995937635138038 0.3973031765598998
0.34134375 -0.8970933896335034 0.40020220014834706
0.3424921875 -0.8966826130833069 0.3991396067503439
0.343640625 -0.8939241094151528 0.4020936700928454
0.3447890625 -0.8946479997869896 0.40259983604510946
0.3459375 -0.8977229621350917 0.400369637506045
0.3470859375 -0.8953295913636952 0.4059769396806396
0.348234375 -0.8966696511219119 0.4047527523734148
0.3493828125 -0.8926626453943554 0.40741689691127864
0.35053125 -0.8966683475540255 0.4080306930314517
0.3516796875 -0.8928380610236812 0.4102629626298826
0.352828125 -0.8907720002005785 0.41041458750186466
0.3539765625 -0.8915138495721266 0.41294760917553874
0.355125 -0.8928351479166454 0.4130113586482952
0.3562734375 -0.8915856831156985 0.41447244849855897
0.357421875 -0.8904849341016018 0.41714080867724157
0.3585703125 -0.8894464661742763 0.4189183368515668
0.35971875 -0.8883993266679986 0.4198711851351866
0.3608671875 -0.8870271898389543 0.42121789301449425
0.362015625 -0.8869071619771066 0.4231647361168139
0.3631640625 -0.8858557955139736 0.42434304975191944
0.3643125 -0.8851699103666414 0.4267772439580839
0.3654609375 -0.8840607705920625 0.4275077054036936
0.366609375 -0.8848957303450988 0.42911146866753086
0.3677578125 -0.8836993803806242 0.43102548429067705
0.36890625 -0.882573198066497 0.4324873235269462
0.3700546875 -0.8811450025171714 0.433815093176395
0.371203125 -0.8808405489742304 0.43672335826139935
0.3723515625 -0.8806451973186054 0.43679538814653485
0.3735 -0.8803356247586369 0.43918305802470237
0.3746484375 -0.8795379617513734 0.4397794977930588
0.375796875 -0.8788211335995246 0.4417199317301242
0.3769453125 -0.8775045799098629 0.44340067352953816
0.37809375 -0.8772755997300432 0.4455232294880384
0.3792421875 -0.8763118140167959 0.44582613894895246
0.380390625 -0.8752730294417967 0.4483059577717866
0.3815390625 -0.874630740200052 0.44980694416706424
0.3826875 -0.8743401438313275 0.451914370055183
0.3838359375 -0.8740563412689994 0.45330435910770756
0.384984375 -0.8738892937861182 0.4543664097958442
0.3861328125 -0.8735293339070863 0.45547445915670093
0.38728125 -0.8726085335376405 0.4570468512088035
0.3884296875 -0.8721344313145589 0.4585605510144476
0.389578125 -0.871592463828176 0.45989297035936894
0.3907265625 -0.8704431528975088 0.46115300881298116
0.391875 -0.8696523278127641 0.4636518318310968
0.3930234375 -0.8694747065818842 0.4637949927656113
0.394171875 -0.8686236217653995 0.46534396369503767
0.3953203125 -0.8680978307424654 0.4672045863692664
0.39646875 -0.8671398723040196 0.46841127937476057
0.3976171875 -0.8667909541292158 0.4698027155221758
0.398765625 -0.8660842656269998 0.4711529932486078
0.3999140625 -0.8655326134407932 0.4728193772761004
0.4010625 -0.8647143896196452 0.4741724594212362
0.4022109375 -0.8645167295297583 0.47610606486965035
0.403359375 -0.8638222518533905 0.4768348640539713
0.4045078125 -0.86367848461767 0.47710439842282404
0.40565625 -0.8620412310642898 0.4774527357266727
0.4068046875 -0.861603313289328 0.47932896389097424
0.407953125 -0.8609668679196765 0.4803422603331428
0.4091015625 -0.8598695187387129 0.4823172086447859
0.41025 -0.8588589143596475 0.48312585647157935
0.4113984375 -0.8584035322874215 0.48400120193120444
0.412546875 -0.8575574623516682 0.4854324601005561
0.4136953125 -0.8575208037173607 0.48613762036714114
0.41484375 -0.8565427263178591 0.4875514611450661
0.4159921875 -0.8559506392189795 0.4892855275339153
0.417140625 -0.8548606032909469 0.4906647776737674
0.4182890625 -0.8544190711379243 0.4917202798321204
0.4194375 -0.8541099266736135 0.493413068586555
0.4205859375 -0.8530757294267897 0.4951935999936881
0.421734375 -0.8516773414530079 0.4955704442081085
0.4228828125 -0.8523956968673951 0.49718013628300145
0.42403125 -0.850970993291152 0.4985497682471083
0.4251796875 -0.8504668611840736 0.4999936137712989
0.426328125 -0.8496531116624039 0.5017995002238552
0.4274765625 -0.848927702904189 0.5026835761921807
0.428625 -0.8476302293685736 0.5019210689468623
0.4297734375 -0.8484905067489162 0.5050087873800243
0.430921875 -0.8468630622276807 0.5062804803050845
0.4320703125 -0.8452537132613188 0.5061060748368759
0.43321875 -0.8458683341324131 0.5087860067916139
0.4343671875 -0.8444860033641484 0.5074460902497109
0.435515625 -0.8441772732024271 0.5110740138778609
0.4366640625 -0.843102480818128 0.5122502200910732
0.4378125 -0.8417989129357827 0.5129557179006743
0.4389609375 -0.8419895362085862 0.5137269183572852
0.440109375 -0.8404650468929544 0.5168951153691332
0.4412578125 -0.8399558438777046 0.5162951005089214
0.44240625 -0.8398467871729198 0.5178273418447401
0.4435546875 -0.83828264677909 0.5181840842155865
0.444703125 -0.8386993804135022 0.5211797796444179
0.4458515625 -0.8367666935922804 0.5223394393885967
0.447 -0.8359339627782685 0.5258568993114983
0.4481484375 -0.8358093273001985 0.5210122451007086
0.449296875 -0.834987922984335 0.5253625464475807
0.4504453125 -0.8345447299653148 0.5261206028364629
0.45159375 -0.8337417404330936 0.5263897120883304
0.4527421875 -0.8344702428784239 0.5287444495693294
0.453890625 -0.8325999634206133 0.5309218249262324
0.4550390625 -0.8321595209060048 0.5317666957157063
0.4561875 -0.8309121600199292 0.5318795416272712
0.4573359375 -0.830454769978034 0.5328894218227075
0.458484375 -0.8303131290441388 0.5335340976144936
0.4596328125 -0.8304020297654884 0.5344844937290728
0.46078125 -0.8287444535095803 0.5371285788980037
0.4619296875 -0.8273853101248702 0.5382518910845873
0.463078125 -0.8271989398202193 0.5399508945303655
0.4642265625 -0.8265414790236447 0.5401297041829161
0.465375 -0.8257239350916135 0.5407013552421379
0.4665234375 -0.8240491199736066 0.5430485312973943
0.467671875 -0.8242308518351279 0.5433727879074246
0.4688203125 -0.8223237420637637 0.5438222157009267
0.46996875 -0.8226554163936987 0.545854217246726
0.4711171875 -0.8216576858286202 0.5472527572492488
0.472265625 -0.8210564536249438 0.5483004380625676
0.4734140625 -0.8203514534709078 0.5495490607663069
0.4745625 -0.8195298047622702 0.5495201576751578
0.4757109375 -0.8194754363226657 0.5514189378664924
0.476859375 -0.818790045481038 0.5525334112466344
0.4780078125 -0.8178384728153596 0.5535898333876734
0.47915625 -0.816591745033979 0.5547340399084687
0.4803046875 -0.816479183174192 0.5557069084357675
0.481453125 -0.8148870858534375 0.5571838483645177
0.4826015625 -0.8141585543570077 0.5580968283787374
0.48375 -0.8132178691797397 0.5599167545670227
0.4848984375 -0.8126213312427788 0.5606582952800311
0.486046875 -0.8122320451748345 0.5618964807611087
0.4871953125 -0.8116148452848746 0.5632409003403798
0.48834375 -0.8110409613696922 0.5633934954370392
0.4894921875 -0.8101909592024057 0.5642426266375459
0.490640625 -0.8089591414323256 0.5650492428075399
0.4917890625 -0.8079885853375748 0.5656232871182945
0.4929375 -0.8067786198475548 0.5666036984460768
0.4940859375 -0.8054898872462912 0.5679897772939546
0.495234375 -0.8038847072716568 0.5696464904836542
0.4963828125 -0.8029786981380342 0.5716074383195948
0.49753125 -0.8023867730595614 0.5731773421583363
0.4986796875 -0.8014617452646108 0.5740467448120808
0.499828125 -0.8007722255797305 0.575692770279581
0.5009765625 -0.79978553426949 0.576670481883437
0.502125 -0.798657570314288 0.5781576927242661
0.5032734375 -0.7972716798612214 0.5789055313570495
0.504421875 -0.7974320049219308 0.5811142470367651
0.5055703125 -0.7966677643865645 0.5831235521125068
0.50671875 -0.7953272780768237 0.5833629225696509
0.5078671875 -0.7944279576212931 0.5856239469377842
0.509015625 -0.7936310014101886 0.5865182118373077
0.5101640625 -0.7923514868882487 0.5876368881933206
0.5113125 -0.7917905926824613 0.5895536875869474
0.5124609375 -0.7905679422513091 0.590151392096761
0.513609375 -0.7902778335646338 0.5916409056871612
0.5147578125 -0.7900724331172744 0.5931641631904467
0.51590625 -0.7889706839070683 0.5935691754321122
0.5170546875 -0.7880668703792781 0.5951606109951174
0.518203125 -0.7867247152538253 0.5966197074630436
0.5193515625 -0.7859535321020406 0.5975109559601308
0.5205 -0.7847515109833294 0.5979193867667508
0.5216484375 -0.7839080578468798 0.6004333679522005
0.522796875 -0.7825569201518022 0.6029642537680179
0.5239453125 -0.7814901627995207 0.6039022294293448
0.52509375 -0.7812484166419963 0.6048095032733417
0.5262421875 -0.7806747798492429 0.6053894819758562
0.527390625 -0.7792586281546698 0.606805371185687
0.5285390625 -0.7784851616527203 0.6081184423946988
0.5296875 -0.7778340858294177 0.609440086125641
0.5308359375 -0.7767315943750874 0.6106507623279913
0.531984375 -0.7761678128651286 0.6123423791061321
0.5331328125 -0.7751430303186018 0.6132592610752832
0.53428125 -0.774006584210816 0.6148866741023453
0.5354296875 -0.7732368993002031 0.6160571136708761
0.536578125 -0.7725305614251207 0.6172560179830648
0.5377265625 -0.7716446139049216 0.6188637990939683
0.538875 -0.7700913871358347 0.6201127313770163
0.5400234375 -0.7694591907565929 0.6213091571809812
0.541171875 -0.7685442266729144 0.6228149306939416
0.5423203125 -0.7673712581957178 0.6239456022221064
0.54346875 -0.7668638306931026 0.6247456672793494
0.5446171875 -0.7660273537987858 0.6266151122940815
0.545765625 -0.7654329961663793 0.6276288472515816
0.5469140625 -0.7643612544685103 0.6285143603594041
0.5480625 -0.7636580823767765 0.6296511604793373
0.5492109375 -0.7624769523557308 0.6311909966098117
0.550359375 -0.7613523259183077 0.6324665090465873
0.5515078125 -0.7604660767190994 0.6333252084875636
0.55265625 -0.7596044013919592 0.6346559614502314
0.5538046875 -0.7582668819006277 0.6355857795820463
0.554953125 -0.7570000254657313 0.6372659501972369
0.5561015625 -0.7561547789144515 0.6385637446368497
0.55725 -0.7551702775806476 0.6396152266458908
0.5583984375 -0.7543878939697131 0.6410053326617218
0.559546875 -0.7531756819972664 0.6425022350744041
0.5606953125 -0.7527319382686258 0.6439536755862046
0.56184375 -0.7517420729206072 0.6448109057411755
0.5629921875 -0.7496700858519432 0.6457604432712638
0.564140625 -0.7493132766845996 0.6471569099698435
0.5652890625 -0.7484093550158556 0.6481862380561998
0.5664375 -0.7468121595029991 0.6495925670858771
0.5675859375 -0.7462590175610202 0.6508281183556511
0.568734375 -0.7450454761496437 0.6515029496245526
0.5698828125 -0.7447312224100527 0.651924245485627
0.57103125 -0.7430868812188802 0.6543299021642298
0.5721796875 -0.7421604959206114 0.6552667645999251
0.573328125 -0.7409492234406876 0.6563670733590141
0.5744765625 -0.7399197822920806 0.6574799179273889
0.575625 -0.7388913311906151 0.6592302080424483
0.5767734375 -0.7375515571070184 0.6609063554860197
0.577921875 -0.7367516568003836 0.6621285516647046
0.5790703125 -0.7353475872854998 0.6627592969697775
0.58021875 -0.7342300830234805 0.6639423881697453
0.5813671875 -0.733801779992939 0.6645907891222286
0.582515625 -0.7320934059735611 0.6662866852253628
0.5836640625 -0.7314298361605904 0.6677153189408487
0.5848125 -0.7304301524355483 0.6684118397175849
0.5859609375 -0.7287568728980215 0.6704615302621091
0.587109375 -0.7281378044630333 0.6708595120517326
0.5882578125 -0.7266019489228532 0.6728302188835636
0.58940625 -0.7258764413904804 0.6735861188344379
0.5905546875 -0.7250692985702439 0.6748279849293948
0.591703125 -0.7242143931973533 0.675619572018163
0.5928515625 -0.7233019115652974 0.6766340783837462
0.594 -0.7222311274337259 0.6780285152549572
0.5951484375 -0.7218153173876256 0.6794135203913525
0.596296875 -0.7203919198405327 0.6801345873433703
0.5974453125 -0.7192516604645562 0.6810803961576738
0.59859375 -0.7193474372038453 0.682397168118801
0.5997421875 -0.7170771518315846 0.6835868066211119
0.600890625 -0.7167318863470034 0.6846774433204472
0.6020390625 -0.7157703437330132 0.6858143291995554
0.6031875 -0.7148738122376186 0.6870045665511603
0.6043359375 -0.7140957851382052 0.6881470904861071
0.605484375 -0.7133109619759409 0.689282261821903
0.6066328125 -0.7124611138725718 0.6901908737030026
0.60778125 -0.7123298065509368 0.6910889115624462
0.6089296875 -0.7116467876631372 0.6912671125262471
0.610078125 -0.7104701752976834 0.6918002335337677
0.6112265625 -0.7089072564050385 0.6928519618014612
0.612375 -0.7073990671725396 0.6943512513262187
0.6135234375 -0.7064919746737552 0.6955268323178057
0.614671875 -0.7053921213027371 0.6963752271164316
0.6158203125 -0.7044533290534782 0.6971545041392426
0.61696875 -0.7034112589758053 0.6978877285297913
0.6181171875 -0.7029734726529134 0.6992325023406473
0.619265625 -0.7018827897615796 0.7004598607892948
0.6204140625 -0.7011539417540829 0.7016006762193318
0.6215625 -0.6995042170414738 0.7024566462839744
0.6227109375 -0.6993252815618332 0.7028968403935556
0.623859375 -0.6981158768315401 0.7042377393259386
0.6250078125 -0.6975217172524967 0.7053729600600022
0.62615625 -0.6962674393122915 0.7061147635930113
0.6273046875 -0.6955727654193707 0.7065182349274918
0.628453125 -0.695075760705783 0.7079731164566253
0.6296015625 -0.6936179152197983 0.7113299735786496
0.63075 -0.692723110131012 0.7101179439481866
0.6318984375 -0.6917278909218657 0.7113268621144964
0.633046875 -0.6903492940452185 0.7123100480088445
0.6341953125 -0.6875912040444723 0.7127471359762034
0.63534375 -0.6882048085339751 0.7113487306057593
0.6364921875 -0.6877255890374451 0.7144078858910736
0.637640625 -0.6863529653478067 0.7159113329282363
0.6387890625 -0.6843729507672235 0.7149608033260257
0.6399375 -0.6840620860567512 0.718037164094496
0.6410859375 -0.6836342695553755 0.7181440916639059
0.642234375 -0.6803275183939875 0.719945582576718
0.6433828125 -0.6795041763187932 0.7216182640745372
0.64453125 -0.679713039836752 0.7216626837063169
0.6456796875 -0.6786417997268773 0.7233969401924147
0.646828125 -0.6776981297387832 0.723078027056354
0.6479765625 -0.6773374663769605 0.7239885617557493
0.649125 -0.6755418181587172 0.7255321459770778
0.6502734375 -0.6743029349758705 0.7268007134218901
0.651421875 -0.6728833381988936 0.7300589887793079
0.6525703125 -0.6727706250891641 0.7293483094705872
0.65371875 -0.6723782007910002 0.7306162248970527
0.6548671875 -0.6718947358906515 0.7308463050530554
0.656015625 -0.6695101622527853 0.7311405427275173
0.6571640625 -0.6686043096833739 0.7327952091580092
0.6583125 -0.6668418885024134 0.7332802776198124
0.6594609375 -0.6672906129629295 0.7351505667843957
0.660609375 -0.6660873535286099 0.7353555751964441
0.6617578125 -0.6638258244203357 0.7369919070170073
0.66290625 -0.6629867154974753 0.7380763417664101
0.6640546875 -0.6619405748721976 0.7397404571741939
0.665203125 -0.6611629092270824 0.74050827275203
0.6663515625 -0.6601661483877072 0.7407553419779049
0.6675 -0.6591395777982926 0.742604093376952
0.6686484375 -0.6586298689282533 0.742822134183872
0.669796875 -0.6573487185777198 0.7437309268163029
0.6709453125 -0.6543299591591405 0.7448760665581274
0.67209375 -0.6546416688684116 0.7461573071417941
0.6732421875 -0.6535726561325654 0.7472911897953594
0.674390625 -0.6528154394254084 0.7482719580764344
0.6755390625 -0.6516449017617838 0.7489990016506614
0.6766875 -0.6504673974355014 0.7495699428376894
0.6778359375 -0.6495758197746277 0.7507869530731123
0.678984375 -0.6482386985566296 0.7519539772248961
0.6801328125 -0.646987789786438 0.7525953345286172
0.68128125 -0.6458226715348286 0.753794253171476
0.6824296875 -0.644630838660516 0.7545903815083564
0.683578125 -0.6438518443889892 0.7560160491490178
0.6847265625 -0.6421160662813792 0.7570204287195322
0.685875 -0.6410645795078738 0.7581380068909487
0.6870234375 -0.6399356293283456 0.7592347991351789
0.688171875 -0.6386430639758146 0.7601875160416638
0.6893203125 -0.6375596101702314 0.761132930950072
0.69046875 -0.6365321982660955 0.7622713718747126
0.6916171875 -0.6353010586868366 0.7631656329808747
0.692765625 -0.6339841487019434 0.76410812900892
0.6939140625 -0.632792212904347 0.7651924525094649
0.6950625 -0.6315362169962787 0.7657281921000798
0.6962109375 -0.6303517258275828 0.7674064558372427
0.697359375 -0.6293128908356581 0.7683164208408436
0.6985078125 -0.6278837949020282 0.7696329840908274
0.69965625 -0.6267010075811037 0.7705151139732186
0.7008046875 -0.6252674830100635 0.7715664535147103
0.701953125 -0.6239160471886638 0.7718729544466708
0.7031015625 -0.6229616481488858 0.7732474527439751
0.70425 -0.6213420827257874 0.7743614862260022
0.7053984375 -0.6205807194326698 0.774624566766291
0.706546875 -0.6193275774136371 0.7768539098647107
0.7076953125 -0.6175374664595605 0.777861134331574
0.70884375 -0.6167768668599638 0.7790411893301472
0.7099921875 -0.6156808488362987 0.7802891394679901
0.711140625 -0.6148231547744262 0.7805808017325795
0.7122890625 -0.6129289444344879 0.7822591740822955
0.7134375 -0.6112872537361022 0.7829518279508929
0.7145859375 -0.6102153943293673 0.784126422998864
0.715734375 -0.6087929732158185 0.7853263547552293
0.7168828125 -0.6078113877027975 0.7859780780244167
0.71803125 -0.6058959700011586 0.7870598603350589
0.7191796875 -0.6053637361946833 0.7871562085536168
0.720328125 -0.6037405356576436 0.7890218835915126
0.7214765625 -0.602423286537828 0.7894211517094071
0.722625 -0.6012209632556568 0.790714423597215
0.7237734375 -0.5989628870138437 0.7920502291903997
0.724921875 -0.5987383117789442 0.7925952779824921
0.7260703125 -0.5974937435376613 0.7936582549310248
0.72721875 -0.5960767790049624 0.7947407548391201
0.7283671875 -0.5947680663063415 0.7962359023904986
0.729515625 -0.5938244341153531 0.7970554886917243
0.7306640625 -0.5929587188406167 0.7983048202473436
0.7318125 -0.5909855087642835 0.7991111616465432
0.7329609375 -0.5900553183151733 0.8000955587613509
0.734109375 -0.5891227996292141 0.8009776843550505
0.7352578125 -0.5877774894455943 0.8021006969105604
0.73640625 -0.5865407234953408 0.8025662907741011
0.7375546875 -0.5853105167800898 0.8036542360277463
0.738703125 -0.5842023101373771 0.8047029087636065
0.7398515625 -0.5829405620626695 0.8055895729983292
0.741 -0.581457538663636 0.8063923889109393
0.7421484375 -0.5799547762721016 0.8069602347851499
0.743296875 -0.5783705364484506 0.8079512111973868
0.7444453125 -0.5770320795024639 0.8092285042505593
0.74559375 -0.5757493977236272 0.8105687085485213
0.7467421875 -0.5746890043291171 0.8118280886291227
