! Created with skrf 1.9.0 (http://scikit-rf.org).
# GHz S RI R 50.0 
!freq ReS11 ImS11
0.3 -0.9609239592401067 0.20437758950893342
0.3011484375 -0.9597228982232064 0.20756534297257956
0.302296875 -0.9594109796157014 0.2100047588112227
0.3034453125 -0.9601508461551618 0.2111705127003235
0.30459375 -0.9608265479404376 0.21298030299161458
0.3057421875 -0.9608285253259747 0.21259655605954814
0.306890625 -0.9613374724866196 0.214211191659754
0.3080390625 -0.9626643318468304 0.21448985744306803
0.3091875 -0.9623962427611705 0.21336643686146536
0.3103359375 -0.9620704810818537 0.21492738772725956
0.311484375 -0.9610093440832344 0.21566545638424436
0.3126328125 -0.9617262922355576 0.21566739011100552
0.31378125 -0.9625328595665192 0.2164370590620215
0.3149296875 -0.9617081803438432 0.21783561587126138
0.316078125 -0.9620928299021665 0.21885131135406738
0.3172265625 -0.9615915116146022 0.21842117809887765
0.318375 -0.9620772079501281 0.21825695497351352
0.3195234375 -0.9609339512240812 0.21959522044717383
0.320671875 -0.9611068138072499 0.22022487888488745
0.3218203125 -0.9605942448820547 0.2235781362595448
0.32296875 -0.9624593552197113 0.2239027753301439
0.3241171875 -0.9602427327689231 0.22204428749628902
0.325265625 -0.9604713774942024 0.22313916183779708
0.3264140625 -0.9619295052311866 0.2240916590758945
0.3275625 -0.9619209396004846 0.2230964168105456
0.3287109375 -0.9614547028107217 0.22532253887359277
0.329859375 -0.960840550882459 0.23030714903008398
0.3310078125 -0.9629402040673897 0.23000837165986965
0.33215625 -0.957798713597086 0.22703377905487365
0.3333046875 -0.959578328010636 0.22647599279225705
0.334453125 -0.9606284869392174 0.2276200641801606
0.3356015625 -0.9591994382403652 0.23033422767960565
0.33675 -0.9601466298931797 0.22988269494154853
0.3378984375 -0.9603703630162499 0.23307446335536963
0.339046875 -0.9586872654182605 0.23375255590407135
0.3401953125 -0.9590242480532625 0.23481430938827438
0.34134375 -0.9597134357437807 0.23409765672417124
0.3424921875 -0.9572652777812707 0.23469512380972885
0.343640625 -0.9557746811130123 0.23808800743490938
0.3447890625 -0.9554867995693357 0.23700037779068636
0.3459375 -0.959160530533796 0.2340162034723328
0.3470859375 -0.9574468478236831 0.2370742509763947
0.348234375 -0.958880785925367 0.2362608393431843
0.3493828125 -0.9563493169827904 0.23840878279249497
0.35053125 -0.9599030397549316 0.24063205168308155
0.3516796875 -0.9571396156912849 0.24203649965714746
0.352828125 -0.9543857328528134 0.2426505974202238
0.3539765625 -0.9562246228548067 0.24314800674837553
0.355125 -0.9575030710959482 0.24182557485189662
0.3562734375 -0.9561446542542595 0.2439031634975467
0.357421875 -0.9566546106183147 0.24578274720921187
0.3585703125 -0.9563100121048422 0.2474506707622313
0.35971875 -0.9555327838647889 0.2474765881364857
0.3608671875 -0.9544829268144941 0.24882809950279797
0.362015625 -0.9541625850246742 0.25024409392347413
0.3631640625 -0.9532683324454329 0.25056827152927474
0.3643125 -0.9538300992474595 0.252175124677289
0.3654609375 -0.9532243856500042 0.2526766500775207
0.366609375 -0.954428353332754 0.25343667557303334
0.3677578125 -0.9539298657170003 0.2550409473915177
0.36890625 -0.9532909841885955 0.2558361652678223
0.3700546875 -0.9523435648537227 0.2565942590016748
0.371203125 -0.9527913260785993 0.25876016510660643
0.3723515625 -0.952154050765599 0.2584077491219962
0.3735 -0.9528530390162413 0.2604859790744184
0.3746484375 -0.951719964594886 0.2605274440526226
0.375796875 -0.951792046155356 0.26212758027198724
0.3769453125 -0.9510461548124354 0.2632090629832057
0.37809375 -0.9515929979750228 0.2646366367300222
0.3792421875 -0.9506736481096345 0.26489078723224413
0.380390625 -0.9505409276183804 0.2669320046388854
0.3815390625 -0.9504546113199293 0.26799186202938047
0.3826875 -0.9505301811750609 0.26902240891361723
0.3838359375 -0.9509637658525301 0.2702737021860919
0.384984375 -0.9512879891193107 0.2704048890616165
0.3861328125 -0.9509924963754541 0.27126147354920116
0.38728125 -0.9505162869512399 0.2722231094326558
0.3884296875 -0.9506793533476716 0.27308243876397975
0.389578125 -0.9502295724487291 0.2738507895308075
0.3907265625 -0.9497671926283707 0.2753395989273541
0.391875 -0.9491356968320189 0.27678336205870996
0.3930234375 -0.9491725022664758 0.27653943662669656
0.394171875 -0.9491575766982501 0.2772780506050962
0.3953203125 -0.9489930018726143 0.2787536062617126
0.39646875 -0.9488707546214251 0.27980365521581285
0.3976171875 -0.9486384357936128 0.2807561762926567
0.398765625 -0.9484717308894816 0.2815270639283239
0.3999140625 -0.9483495072520723 0.2823194124897096
0.4010625 -0.9484697270545848 0.28338648878492345
0.4022109375 -0.9483493766654667 0.2846813644082615
0.403359375 -0.9480998102042888 0.2849866466774964
0.4045078125 -0.9481231380693846 0.28481585113034724
0.40565625 -0.947029580278518 0.2850242325246257
0.4068046875 -0.9469233496729516 0.2862800654657421
0.407953125 -0.9464520764501094 0.2868169916560472
0.4091015625 -0.9463226610506571 0.2884280120092254
0.41025 -0.9451794027201914 0.28905526141833116
0.4113984375 -0.9454523960439005 0.28946383994584457
0.412546875 -0.9451770021958288 0.29035878244487445
0.4136953125 -0.9453342937051752 0.2905428557918748
0.41484375 -0.9447209609321544 0.2918954318439798
0.4159921875 -0.9446810567220161 0.2931864504907162
0.417140625 -0.9440503954459261 0.2941044388366717
0.4182890625 -0.9441819807157924 0.29445406859299206
0.4194375 -0.9444850400812961 0.29552889407750055
0.4205859375 -0.9437886366266685 0.29689586276928825
0.421734375 -0.9428142777039012 0.29724778637103544
0.4228828125 -0.9436432966196587 0.2980217389523152
0.42403125 -0.9429776836174628 0.2992618485484156
0.4251796875 -0.9429231532879196 0.3000843795426315
0.426328125 -0.9428715576671735 0.30154189152869304
0.4274765625 -0.9424325131227123 0.3024222160599179
0.428625 -0.9409684305362385 0.3014058646258939
0.4297734375 -0.9425311027593416 0.3033762184740577
0.430921875 -0.9415828444057954 0.30442702219166795
0.4320703125 -0.9402114131073465 0.30404409021152806
0.43321875 -0.9409987042616216 0.3059175112485016
0.4343671875 -0.9398709232870676 0.30478525997549016
0.435515625 -0.9411680533057052 0.3073825477167025
0.4366640625 -0.9402333787161652 0.30834287519053505
0.4378125 -0.9388372409543946 0.3087280006450288
0.4389609375 -0.9394651485200967 0.3091743760551136
0.440109375 -0.9395385281486239 0.31155418822577285
0.4412578125 -0.9384502640439116 0.3106174431012907
0.44240625 -0.9379424285846726 0.31169203909319443
0.4435546875 -0.9378402287112564 0.31323648238820007
0.444703125 -0.9386087008037556 0.3129917953803335
0.4458515625 -0.9377402826471204 0.31506019997508855
0.447 -0.9379159551043326 0.316244128699651
0.4481484375 -0.935990188711626 0.3133728498208582
0.449296875 -0.936247586215118 0.3170119995736591
0.4504453125 -0.936237584613349 0.31654407470061824
0.45159375 -0.9359012796762294 0.31827139347591826
0.4527421875 -0.9353605708976348 0.3182484578756578
0.453890625 -0.9366185229858629 0.3201288104211288
0.4550390625 -0.9358438976500035 0.3194964957985615
0.4561875 -0.9354804235328027 0.3206294566578699
0.4573359375 -0.9351441583807937 0.32108584114574806
0.458484375 -0.9357263444033391 0.32230324820805245
0.4596328125 -0.9356987998345567 0.321755854962788
0.46078125 -0.9350221363962443 0.3238125678755735
0.4619296875 -0.9343831362394182 0.3238068412872993
0.463078125 -0.9346261231541807 0.32457605986458277
0.4642265625 -0.9345200059006716 0.32473095199390156
0.465375 -0.9339817349502298 0.3256889988396284
0.4665234375 -0.9345127223014079 0.3277310096509637
0.467671875 -0.9327597749705718 0.3268842252526134
0.4688203125 -0.9336236800510207 0.3287308793908446
0.46996875 -0.9332158163155228 0.32957992814782905
0.4711171875 -0.9326023307726808 0.33034999615664584
0.472265625 -0.9327154857564159 0.3310806156790477
0.4734140625 -0.9317277734308248 0.3317839681282842
0.4745625 -0.9300303353628645 0.33349524809552966
0.4757109375 -0.9320776446972564 0.3326538997906734
0.476859375 -0.9319350071743103 0.3336175345224114
0.4780078125 -0.9318959006999127 0.3338323624132449
0.47915625 -0.9314870909859707 0.3352819333298731
0.4803046875 -0.9308813704730933 0.3362239411928336
0.481453125 -0.9304924021078862 0.33660140676023087
0.4826015625 -0.92997185197987 0.3381833776747853
0.48375 -0.9295446271189618 0.3386792615906463
0.4848984375 -0.9290946894808952 0.33875809079682045
0.486046875 -0.9293299548837288 0.3396441044801678
0.4871953125 -0.9295966595591769 0.3404035038069488
0.48834375 -0.928749891740805 0.3400538010976161
0.4894921875 -0.9285102024594265 0.34053914709414
0.490640625 -0.9277548451707487 0.34104390937813966
0.4917890625 -0.9273462859075131 0.3416000159151941
0.4929375 -0.9265553014277584 0.34220494832296855
0.4940859375 -0.9260403831694747 0.34316329553611763
0.495234375 -0.9253874111977987 0.3439909871137288
0.4963828125 -0.9247032403995429 0.3450371245904089
0.49753125 -0.9244767812455598 0.34646150806940806
0.4986796875 -0.9237802383380058 0.34724081361211856
0.499828125 -0.9236784892628895 0.3490398674234409
0.5009765625 -0.9232869521218081 0.3495826724240484
0.502125 -0.9227875618128211 0.3506884356830109
0.5032734375 -0.9221615466361694 0.3516698202847533
0.504421875 -0.9229194113691667 0.3523674715052343
0.5055703125 -0.922384456765377 0.35350340724291246
0.50671875 -0.9222371508280465 0.3553309258982304
0.5078671875 -0.9214777128281335 0.35533037932806133
0.509015625 -0.9213482124986915 0.35660428592189586
0.5101640625 -0.9213906330790577 0.3576391352321219
0.5113125 -0.9216371649731516 0.35866856078852766
0.5124609375 -0.921479174229461 0.35940251809905677
0.513609375 -0.921078026033809 0.3602364966292884
0.5147578125 -0.9220370738743325 0.3608466436879998
0.51590625 -0.9199735431924236 0.3611204811215814
0.5170546875 -0.9198115307406399 0.36237121074148815
0.518203125 -0.9194564532869282 0.36315739914324696
0.5193515625 -0.9196729410738457 0.36402400632599485
0.5205 -0.9180949205397432 0.3642724293101347
0.5216484375 -0.9182867673244347 0.36577912260557643
0.522796875 -0.918481157420745 0.3665176741650284
0.5239453125 -0.9178715836677827 0.36804058475129353
0.52509375 -0.9182428539071209 0.36880099601143057
0.5262421875 -0.9178417982538485 0.36925913730252713
0.527390625 -0.9173774901842536 0.371042510187852
0.5285390625 -0.9165064814360465 0.3715458252745909
0.5296875 -0.9169711874435807 0.372075694546006
0.5308359375 -0.9165500068940202 0.3731862574649344
0.531984375 -0.9161302232192999 0.3743662448200359
0.5331328125 -0.9159846522934116 0.37487966347217927
0.53428125 -0.9160016213965638 0.3760760698151474
0.5354296875 -0.9158932699017714 0.37676903099732306
0.536578125 -0.915873282214781 0.3781450008560352
0.5377265625 -0.9155461554103569 0.3792809728000486
0.538875 -0.9151176514196301 0.3799952631765205
0.5400234375 -0.9149392471176727 0.38065539722280406
0.541171875 -0.914640644961722 0.3818080378232984
0.5423203125 -0.9137845639760491 0.3827758465742585
0.54346875 -0.9138908820911364 0.38296994988025107
0.5446171875 -0.9136074422518943 0.3845420848367823
0.545765625 -0.913672540730549 0.38494325700458887
0.5469140625 -0.9129859436019102 0.3853984535567045
0.5480625 -0.9128821861186017 0.38592721642033745
0.5492109375 -0.9121680645093455 0.3875538346521282
0.550359375 -0.911885426118964 0.38829969884670434
0.5515078125 -0.9115488776536158 0.38878087064370553
0.55265625 -0.9112705388140324 0.38965142828408583
0.5538046875 -0.9108223809195984 0.390226330730984
0.554953125 -0.9101017301393973 0.3919180316443144
0.5561015625 -0.9102588326689416 0.39239438224810086
0.55725 -0.9095404853295113 0.3932873484718427
0.5583984375 -0.909495017407375 0.39415251118405215
0.559546875 -0.9088026332741479 0.3954815449697927
0.5606953125 -0.9094660127888058 0.3962992232102168
0.56184375 -0.9088535677772271 0.39700391010291247
0.5629921875 -0.9071236014676416 0.39813929023947026
0.564140625 -0.9071390740450681 0.39883209740613457
0.5652890625 -0.9069659475084739 0.39946545361489183
0.5664375 -0.9062259300356383 0.4007212423516582
0.5675859375 -0.9058617083069781 0.40134851620487255
0.568734375 -0.905446930176334 0.40203642154004793
0.5698828125 -0.9049901305476845 0.40202339580083574
0.57103125 -0.9047189853049408 0.4039392866030991
0.5721796875 -0.9044122790522707 0.4045890018710561
0.573328125 -0.9037636726983445 0.4052920869620897
0.5744765625 -0.903200652099514 0.40643853958968407
0.575625 -0.9030302473213707 0.40736598938529395
0.5767734375 -0.9028364762641844 0.40897314820856334
0.577921875 -0.9028361278789871 0.4098916304677316
0.5790703125 -0.901667876912124 0.41059825930255484
0.58021875 -0.9009994246553582 0.41150108369733573
0.5813671875 -0.9005835639418301 0.41250503539737804
0.582515625 -0.8999497611620171 0.41379978779490434
0.5836640625 -0.8997965597382374 0.4145483375071757
0.5848125 -0.8985755635774259 0.4157329929008316
0.5859609375 -0.8990820214915626 0.4168449832691533
0.587109375 -0.8984198976621737 0.41732220403483367
0.5882578125 -0.8985348724632933 0.4179299098273591
0.58940625 -0.8977587079652417 0.4186002408193337
0.5905546875 -0.8976068680491819 0.4198489699680046
0.591703125 -0.8975201351940928 0.420774188357377
0.5928515625 -0.8964659784144835 0.42189508992819647
0.594 -0.8968543340943052 0.42207597764757465
0.5951484375 -0.8967828568054355 0.42302403716584425
0.596296875 -0.8960735430952881 0.4240639831408362
0.5974453125 -0.8956639598186567 0.4244327727924667
0.59859375 -0.8963867436883822 0.42566987315078797
0.5997421875 -0.8957348457751502 0.42645168427073565
0.600890625 -0.8953158744893346 0.427256532174451
0.6020390625 -0.8951063444697311 0.42841956870348374
0.6031875 -0.8945152369679006 0.4294658539044759
0.6043359375 -0.8945306191815572 0.42991203685629176
0.605484375 -0.8945106178342366 0.43080058910516317
0.6066328125 -0.8945282450149357 0.4316340710216117
0.60778125 -0.8944329531138129 0.4322426323271739
0.6089296875 -0.8942501544672327 0.4318731955199473
0.610078125 -0.8940041393613579 0.4322717624923624
0.6112265625 -0.893472406082517 0.4329479938943656
0.612375 -0.8927644684256262 0.43390513510547973
0.6135234375 -0.8921768340845766 0.43441945107241553
0.614671875 -0.8913194275454094 0.43537282784588355
0.6158203125 -0.8904608278327851 0.436203901705853
0.61696875 -0.8902553050457458 0.43701783042719744
0.6181171875 -0.8903556484261117 0.43758984935315653
0.619265625 -0.8901030216264222 0.4384929634696803
0.6204140625 -0.8897574043688598 0.4393569826933314
0.6215625 -0.8895675389366516 0.4402753707816248
0.6227109375 -0.8892247259198176 0.4409085046324639
0.623859375 -0.8889248857055123 0.4415799579879461
0.6250078125 -0.8894334256204712 0.44229236240833714
0.62615625 -0.8879779806951849 0.4424091393692529
0.6273046875 -0.8882538098706281 0.44234536356080945
0.628453125 -0.8880495403583837 0.44378073982354654
0.6296015625 -0.8871605250856343 0.44451995010937123
0.63075 -0.886671351691807 0.44592817311655236
0.6318984375 -0.8867316992597835 0.4460487517057679
0.633046875 -0.8865235742435158 0.446647695543622
0.6341953125 -0.8849412616523715 0.4479046283267023
0.63534375 -0.8839578084881742 0.446638668430436
0.6364921875 -0.8856140258612237 0.4494789901369218
0.637640625 -0.8849228107828923 0.4494104117644978
0.6387890625 -0.882686475980642 0.4482139749395104
0.6399375 -0.8833740052027131 0.4511920821669195
0.6410859375 -0.8830217599931244 0.45103136874638095
0.642234375 -0.880969938882251 0.4528020340447041
0.6433828125 -0.881580991848534 0.453381690296309
0.64453125 -0.8815713809100292 0.4541985644058305
0.6456796875 -0.8801599739338648 0.4555227715176404
0.646828125 -0.8802273921754996 0.4549257928851208
0.6479765625 -0.8812532611289503 0.4556576125891741
0.649125 -0.8793517697447024 0.4587807186774397
0.6502734375 -0.8786002251450505 0.46020848313977125
0.651421875 -0.8795062247960603 0.45906739796077256
0.6525703125 -0.878605238602427 0.4590614086100773
0.65371875 -0.8788975986873467 0.4603213729690282
0.6548671875 -0.8785989157026575 0.4606534783346511
0.656015625 -0.8777121147086202 0.4616059276358948
0.6571640625 -0.8778347398828482 0.46243883689223575
0.6583125 -0.8766698281832446 0.4627217747561011
0.6594609375 -0.8775667825057082 0.46427195853047565
0.660609375 -0.8760745549005353 0.4642695257001913
0.6617578125 -0.8758002852094093 0.46574689104562483
0.66290625 -0.876226245052136 0.4665651431952771
0.6640546875 -0.8758416151368684 0.46753604378105085
0.665203125 -0.874736195885657 0.4683264439539214
0.6663515625 -0.8749472375775427 0.46887467645162617
0.6675 -0.8744594535632331 0.4706659684357428
0.6686484375 -0.8737159973429697 0.47012550022768007
0.669796875 -0.8735795559688497 0.4717078164240035
0.6709453125 -0.8736124257299739 0.47287707058506717
0.67209375 -0.872803373431651 0.47333986978873366
0.6732421875 -0.8730884741656921 0.4743323511339041
0.674390625 -0.8728659470130075 0.4754144560843926
0.6755390625 -0.8723594123992076 0.47594642796886916
0.6766875 -0.8718781692235924 0.4763755758572271
0.6778359375 -0.8712714453478582 0.47702356283276304
0.678984375 -0.8705559772314746 0.4780137031302576
0.6801328125 -0.8703626225979992 0.4786696136154486
0.68128125 -0.8698530911998725 0.4796659445915252
0.6824296875 -0.8687242297230204 0.4808027352118488
0.683578125 -0.8695311910434413 0.48090889024688205
0.6847265625 -0.868735584384447 0.4817618759958502
0.685875 -0.8680769475351884 0.4832269260680635
0.6870234375 -0.8682910414308818 0.4836470743591489
0.688171875 -0.868104235606552 0.48423826454615304
0.6893203125 -0.8678541501411532 0.4847505034480766
0.69046875 -0.8674431119492549 0.4849551232051117
0.6916171875 -0.8664296893948531 0.4861003629113929
0.692765625 -0.8657273413149782 0.48647044165795117
0.6939140625 -0.8652705334491546 0.48778239332699314
0.6950625 -0.8646418937171554 0.4884218348912398
0.6962109375 -0.8645605865310113 0.48966988282383506
0.697359375 -0.8643278507530908 0.4902463542902772
0.6985078125 -0.863696856871397 0.4913426461485137
0.69965625 -0.8632821364977687 0.4922916257434969
0.7008046875 -0.8627620754787205 0.49283350561357053
0.701953125 -0.8619950121470309 0.4931631259216745
0.7031015625 -0.8620823535693622 0.4943921621278723
0.70425 -0.8614088954555066 0.4952994400168364
0.7053984375 -0.8608344441685525 0.49543043315729896
0.706546875 -0.8603708987515678 0.49699707044492814
0.7076953125 -0.860040737701276 0.4985639563255331
0.70884375 -0.8597271052135692 0.49860308857139835
0.7099921875 -0.8592152138059609 0.49943588895327795
0.711140625 -0.8584724582913477 0.5006314809408996
0.7122890625 -0.8576778026895397 0.5010529070285638
0.7134375 -0.8574212991874974 0.503207204004777
0.7145859375 -0.8569914249055884 0.503030267235977
0.715734375 -0.8564789578681559 0.5041844978644984
0.7168828125 -0.8558509225264236 0.5046455547718538
0.71803125 -0.8551991337774306 0.5060351594174599
0.7191796875 -0.8549015845932372 0.50604669833502
0.720328125 -0.8541828869053116 0.5075437307303287
0.7214765625 -0.8532929789800412 0.5082372587879274
0.722625 -0.8532246711861526 0.5093055570219943
0.7237734375 -0.852516853164539 0.5101538913569734
0.724921875 -0.8518675599357924 0.5114094246085026
0.7260703125 -0.8513943785407404 0.5117316807720738
0.72721875 -0.8508473979499686 0.5128821857221796
0.7283671875 -0.8504376581174838 0.5147353786823143
0.729515625 -0.8499181786259702 0.5146822083540916
0.7306640625 -0.8494820356914571 0.5158090526940717
0.7318125 -0.8487665345443782 0.5167862174411134
0.7329609375 -0.848353265694975 0.5174493311510138
0.734109375 -0.8474156649535709 0.5187440601878557
0.7352578125 -0.8473545439888172 0.5191891954881875
0.73640625 -0.8468934283173427 0.5199365622739385
0.7375546875 -0.8461958023880587 0.5207592114178279
0.738703125 -0.8459911162447904 0.5219060202735418
0.7398515625 -0.8451756064804571 0.5227839656747992
0.741 -0.8447475419873519 0.5236341814993556
0.7421484375 -0.8443137243536927 0.5245390547597164
0.743296875 -0.8437757599443128 0.5253332535972469
0.7444453125 -0.8432409714399624 0.5263114575699241
